date Mon Jan 01 00:00:00 2024
base hex  timestamps absolute
internal events logged
Begin Triggerblock Mon Jan 01 00:00:00 2024
   0.000000 Start of measurement
     0.000000 1  100             Rx   d 8 51 00 32 00 62 00 41 40
     0.000000 1  101             Rx   d 8 EB 0F EB 0F 64 00 00 00
     1.000000 1  100             Rx   d 8 51 00 32 00 62 00 41 40
     2.000000 1  100             Rx   d 8 51 00 32 00 62 00 41 40
     3.000000 1  100             Rx   d 8 51 00 32 00 62 00 41 40
     4.000000 1  100             Rx   d 8 51 00 32 00 62 00 41 40
     5.000000 1  100             Rx   d 8 51 00 32 00 62 00 41 40
     5.000000 1  101             Rx   d 8 E5 0F ED 0F 64 00 00 00
     6.000000 1  100             Rx   d 8 51 00 32 00 62 00 41 40
     7.000000 1  100             Rx   d 8 51 00 32 00 62 00 41 40
     8.000000 1  100             Rx   d 8 51 00 32 00 62 00 41 40
     9.000000 1  100             Rx   d 8 51 00 32 00 62 00 41 40
    10.000000 1  100             Rx   d 8 51 00 32 00 62 00 41 40
    10.000000 1  101             Rx   d 8 DF 0F F0 0F 64 00 00 00
    11.000000 1  100             Rx   d 8 51 00 32 00 62 00 41 40
    12.000000 1  100             Rx   d 8 51 00 32 00 62 00 41 40
    13.000000 1  100             Rx   d 8 51 00 32 00 62 00 41 40
    14.000000 1  100             Rx   d 8 51 00 32 00 62 00 41 40
    15.000000 1  100             Rx   d 8 51 00 32 00 61 00 41 43
    15.000000 1  101             Rx   d 8 DA 0F F2 0F 64 00 00 00
    16.000000 1  100             Rx   d 8 51 00 32 00 61 00 41 43
    17.000000 1  100             Rx   d 8 51 00 32 00 61 00 41 43
    18.000000 1  100             Rx   d 8 51 00 32 00 61 00 41 43
    19.000000 1  100             Rx   d 8 51 00 32 00 61 00 41 43
    20.000000 1  100             Rx   d 8 51 00 32 00 61 00 41 43
    20.000000 1  101             Rx   d 8 D4 0F F5 0F 64 00 00 00
    21.000000 1  100             Rx   d 8 51 00 32 00 61 00 41 43
    22.000000 1  100             Rx   d 8 51 00 32 00 61 00 41 43
    23.000000 1  100             Rx   d 8 51 00 32 00 61 00 41 43
    24.000000 1  100             Rx   d 8 51 00 32 00 61 00 41 43
    25.000000 1  100             Rx   d 8 51 00 32 00 61 00 41 43
    25.000000 1  101             Rx   d 8 CE 0F F7 0F 64 00 00 00
    26.000000 1  100             Rx   d 8 51 00 32 00 61 00 41 43
    27.000000 1  100             Rx   d 8 51 00 32 00 61 00 41 43
    28.000000 1  100             Rx   d 8 51 00 32 00 61 00 41 43
    29.000000 1  100             Rx   d 8 51 00 32 00 61 00 41 43
    30.000000 1  100             Rx   d 8 51 00 32 00 61 00 41 43
    30.000000 1  101             Rx   d 8 C9 0F F9 0F 64 00 00 00
    31.000000 1  100             Rx   d 8 51 00 32 00 61 00 41 43
    32.000000 1  100             Rx   d 8 51 00 32 00 61 00 41 43
    33.000000 1  100             Rx   d 8 51 00 32 00 61 00 41 43
    34.000000 1  100             Rx   d 8 51 00 32 00 61 00 41 43
    35.000000 1  100             Rx   d 8 51 00 32 00 61 00 41 43
    35.000000 1  101             Rx   d 8 C3 0F FB 0F 64 00 00 00
    36.000000 1  100             Rx   d 8 51 00 32 00 61 00 41 43
    37.000000 1  100             Rx   d 8 51 00 32 00 61 00 41 43
    38.000000 1  100             Rx   d 8 51 00 32 00 61 00 41 43
    39.000000 1  100             Rx   d 8 51 00 32 00 61 00 41 43
    40.000000 1  100             Rx   d 8 51 00 32 00 61 00 41 43
    40.000000 1  101             Rx   d 8 BE 0F FE 0F 64 00 00 00
    41.000000 1  100             Rx   d 8 51 00 32 00 61 00 41 43
    42.000000 1  100             Rx   d 8 51 00 32 00 61 00 41 43
    43.000000 1  100             Rx   d 8 51 00 32 00 61 00 41 43
    44.000000 1  100             Rx   d 8 51 00 32 00 61 00 41 43
    45.000000 1  100             Rx   d 8 51 00 32 00 61 00 41 43
    45.000000 1  101             Rx   d 8 B8 0F 00 10 64 00 00 00
    46.000000 1  100             Rx   d 8 51 00 32 00 61 00 41 43
    47.000000 1  100             Rx   d 8 51 00 32 00 61 00 41 43
    48.000000 1  100             Rx   d 8 51 00 32 00 61 00 41 43
    49.000000 1  100             Rx   d 8 51 00 32 00 61 00 41 43
    50.000000 1  100             Rx   d 8 51 00 32 00 61 00 41 43
    50.000000 1  101             Rx   d 8 B2 0F 02 10 64 00 00 00
    51.000000 1  100             Rx   d 8 51 00 32 00 60 00 41 42
    52.000000 1  100             Rx   d 8 51 00 32 00 60 00 41 42
    53.000000 1  100             Rx   d 8 51 00 32 00 60 00 41 42
    54.000000 1  100             Rx   d 8 51 00 32 00 60 00 41 42
    55.000000 1  100             Rx   d 8 51 00 32 00 60 00 41 42
    55.000000 1  101             Rx   d 8 AD 0F 04 10 64 00 00 00
    56.000000 1  100             Rx   d 8 51 00 32 00 60 00 41 42
    57.000000 1  100             Rx   d 8 51 00 32 00 60 00 41 42
    58.000000 1  100             Rx   d 8 51 00 32 00 60 00 41 42
    59.000000 1  100             Rx   d 8 51 00 32 00 60 00 41 42
    60.000000 1  100             Rx   d 8 51 00 32 00 60 00 41 42
    60.000000 1  101             Rx   d 8 A8 0F 06 10 64 00 00 00
    61.000000 1  100             Rx   d 8 51 00 32 00 60 00 41 42
    62.000000 1  100             Rx   d 8 51 00 32 00 60 00 41 42
    63.000000 1  100             Rx   d 8 51 00 32 00 60 00 41 42
    64.000000 1  100             Rx   d 8 51 00 32 00 60 00 41 42
    65.000000 1  100             Rx   d 8 51 00 32 00 60 00 41 42
    65.000000 1  101             Rx   d 8 A2 0F 08 10 64 00 00 00
    66.000000 1  100             Rx   d 8 51 00 32 00 60 00 41 42
    67.000000 1  100             Rx   d 8 51 00 32 00 60 00 41 42
    68.000000 1  100             Rx   d 8 51 00 32 00 60 00 41 42
    69.000000 1  100             Rx   d 8 51 00 32 00 60 00 41 42
    70.000000 1  100             Rx   d 8 51 00 32 00 60 00 41 42
    70.000000 1  101             Rx   d 8 9D 0F 0A 10 64 00 00 00
    71.000000 1  100             Rx   d 8 51 00 32 00 60 00 41 42
    72.000000 1  100             Rx   d 8 51 00 32 00 60 00 41 42
    73.000000 1  100             Rx   d 8 51 00 32 00 60 00 41 42
    74.000000 1  100             Rx   d 8 51 00 32 00 60 00 41 42
    75.000000 1  100             Rx   d 8 51 00 32 00 60 00 41 42
    75.000000 1  101             Rx   d 8 98 0F 0C 10 64 00 00 00
    76.000000 1  100             Rx   d 8 51 00 32 00 60 00 41 42
    77.000000 1  100             Rx   d 8 51 00 32 00 60 00 41 42
    78.000000 1  100             Rx   d 8 51 00 32 00 60 00 41 42
    79.000000 1  100             Rx   d 8 51 00 32 00 60 00 41 42
    80.000000 1  100             Rx   d 8 51 00 32 00 60 00 41 42
    80.000000 1  101             Rx   d 8 93 0F 0E 10 64 00 00 00
    81.000000 1  100             Rx   d 8 51 00 32 00 60 00 41 42
    82.000000 1  100             Rx   d 8 51 00 32 00 60 00 41 42
    83.000000 1  100             Rx   d 8 51 00 32 00 60 00 41 42
    84.000000 1  100             Rx   d 8 51 00 32 00 60 00 41 42
    85.000000 1  100             Rx   d 8 51 00 32 00 60 00 41 42
    85.000000 1  101             Rx   d 8 8D 0F 10 10 64 00 00 00
    86.000000 1  100             Rx   d 8 51 00 32 00 60 00 41 42
    87.000000 1  100             Rx   d 8 51 00 32 00 5F 00 41 7D
    88.000000 1  100             Rx   d 8 51 00 32 00 5F 00 41 7D
    89.000000 1  100             Rx   d 8 51 00 32 00 5F 00 41 7D
    90.000000 1  100             Rx   d 8 51 00 32 00 5F 00 41 7D
    90.000000 1  101             Rx   d 8 88 0F 11 10 64 00 00 00
    91.000000 1  100             Rx   d 8 51 00 32 00 5F 00 41 7D
    92.000000 1  100             Rx   d 8 51 00 32 00 5F 00 41 7D
    93.000000 1  100             Rx   d 8 51 00 32 00 5F 00 41 7D
    94.000000 1  100             Rx   d 8 51 00 32 00 5F 00 41 7D
    95.000000 1  100             Rx   d 8 51 00 32 00 5F 00 41 7D
    95.000000 1  101             Rx   d 8 84 0F 13 10 64 00 00 00
    96.000000 1  100             Rx   d 8 51 00 32 00 5F 00 41 7D
    97.000000 1  100             Rx   d 8 51 00 32 00 5F 00 41 7D
    98.000000 1  100             Rx   d 8 51 00 32 00 5F 00 41 7D
    99.000000 1  100             Rx   d 8 51 00 32 00 5F 00 41 7D
   100.000000 1  100             Rx   d 8 51 00 32 00 5F 00 41 7D
   100.000000 1  101             Rx   d 8 7F 0F 15 10 64 00 00 00
   101.000000 1  100             Rx   d 8 51 00 32 00 5F 00 41 7D
   102.000000 1  100             Rx   d 8 51 00 32 00 5F 00 41 7D
   103.000000 1  100             Rx   d 8 51 00 32 00 5F 00 41 7D
   104.000000 1  100             Rx   d 8 51 00 32 00 5F 00 41 7D
   105.000000 1  100             Rx   d 8 51 00 32 00 5F 00 41 7D
   105.000000 1  101             Rx   d 8 7A 0F 16 10 64 00 00 00
   106.000000 1  100             Rx   d 8 51 00 32 00 5F 00 41 7D
   107.000000 1  100             Rx   d 8 51 00 32 00 5F 00 41 7D
   108.000000 1  100             Rx   d 8 51 00 32 00 5F 00 41 7D
   109.000000 1  100             Rx   d 8 51 00 32 00 5F 00 41 7D
   110.000000 1  100             Rx   d 8 51 00 32 00 5F 00 41 7D
   110.000000 1  101             Rx   d 8 75 0F 17 10 64 00 00 00
   111.000000 1  100             Rx   d 8 51 00 32 00 5F 00 41 7D
   112.000000 1  100             Rx   d 8 51 00 32 00 5F 00 41 7D
   113.000000 1  100             Rx   d 8 51 00 32 00 5F 00 41 7D
   114.000000 1  100             Rx   d 8 51 00 32 00 5F 00 41 7D
   115.000000 1  100             Rx   d 8 51 00 32 00 5F 00 41 7D
   115.000000 1  101             Rx   d 8 71 0F 19 10 64 00 00 00
   116.000000 1  100             Rx   d 8 51 00 32 00 5F 00 41 7D
   117.000000 1  100             Rx   d 8 51 00 32 00 5F 00 41 7D
   118.000000 1  100             Rx   d 8 51 00 32 00 5F 00 41 7D
   119.000000 1  100             Rx   d 8 51 00 32 00 5F 00 41 7D
   120.000000 1  100             Rx   d 8 51 00 32 00 5F 00 41 7D
   120.000000 1  101             Rx   d 8 6C 0F 1A 10 64 00 00 00
   121.000000 1  100             Rx   d 8 51 00 32 00 5F 00 41 7D
   122.000000 1  100             Rx   d 8 51 00 32 00 5F 00 41 7D
   123.000000 1  100             Rx   d 8 51 00 32 00 5E 00 41 7C
   124.000000 1  100             Rx   d 8 51 00 32 00 5E 00 41 7C
   125.000000 1  100             Rx   d 8 51 00 32 00 5E 00 41 7C
   125.000000 1  101             Rx   d 8 68 0F 1B 10 64 00 00 00
   126.000000 1  100             Rx   d 8 51 00 32 00 5E 00 41 7C
   127.000000 1  100             Rx   d 8 51 00 32 00 5E 00 41 7C
   128.000000 1  100             Rx   d 8 51 00 32 00 5E 00 41 7C
   129.000000 1  100             Rx   d 8 51 00 32 00 5E 00 41 7C
   130.000000 1  100             Rx   d 8 51 00 32 00 5E 00 41 7C
   130.000000 1  101             Rx   d 8 63 0F 1C 10 64 00 00 00
   131.000000 1  100             Rx   d 8 51 00 32 00 5E 00 41 7C
   132.000000 1  100             Rx   d 8 51 00 32 00 5E 00 41 7C
   133.000000 1  100             Rx   d 8 51 00 32 00 5E 00 41 7C
   134.000000 1  100             Rx   d 8 51 00 32 00 5E 00 41 7C
   135.000000 1  100             Rx   d 8 51 00 32 00 5E 00 41 7C
   135.000000 1  101             Rx   d 8 5F 0F 1D 10 64 00 00 00
   136.000000 1  100             Rx   d 8 51 00 32 00 5E 00 41 7C
   137.000000 1  100             Rx   d 8 51 00 32 00 5E 00 41 7C
   138.000000 1  100             Rx   d 8 51 00 32 00 5E 00 41 7C
   139.000000 1  100             Rx   d 8 51 00 32 00 5E 00 41 7C
   140.000000 1  100             Rx   d 8 51 00 32 00 5E 00 41 7C
   140.000000 1  101             Rx   d 8 5B 0F 1D 10 64 00 00 00
   141.000000 1  100             Rx   d 8 51 00 32 00 5E 00 41 7C
   142.000000 1  100             Rx   d 8 51 00 32 00 5E 00 41 7C
   143.000000 1  100             Rx   d 8 51 00 32 00 5E 00 41 7C
   144.000000 1  100             Rx   d 8 51 00 32 00 5E 00 41 7C
   145.000000 1  100             Rx   d 8 51 00 32 00 5E 00 41 7C
   145.000000 1  101             Rx   d 8 57 0F 1E 10 64 00 00 00
   146.000000 1  100             Rx   d 8 51 00 32 00 5E 00 41 7C
   147.000000 1  100             Rx   d 8 51 00 32 00 5E 00 41 7C
   148.000000 1  100             Rx   d 8 51 00 32 00 5E 00 41 7C
   149.000000 1  100             Rx   d 8 51 00 32 00 5E 00 41 7C
   150.000000 1  100             Rx   d 8 50 00 32 00 5E 00 41 7D
   150.000000 1  101             Rx   d 8 53 0F 1F 10 64 00 00 00
   151.000000 1  100             Rx   d 8 50 00 32 00 5E 00 41 7D
   152.000000 1  100             Rx   d 8 50 00 32 00 5E 00 41 7D
   153.000000 1  100             Rx   d 8 50 00 32 00 5E 00 41 7D
   154.000000 1  100             Rx   d 8 50 00 32 00 5E 00 41 7D
   155.000000 1  100             Rx   d 8 50 00 32 00 5E 00 41 7D
   155.000000 1  101             Rx   d 8 50 0F 1F 10 64 00 00 00
   156.000000 1  100             Rx   d 8 50 00 32 00 5E 00 41 7D
   157.000000 1  100             Rx   d 8 50 00 32 00 5E 00 41 7D
   158.000000 1  100             Rx   d 8 50 00 32 00 5E 00 41 7D
   159.000000 1  100             Rx   d 8 50 00 32 00 5D 00 41 7E
   160.000000 1  100             Rx   d 8 50 00 32 00 5D 00 41 7E
   160.000000 1  101             Rx   d 8 4C 0F 1F 10 64 00 00 00
   161.000000 1  100             Rx   d 8 50 00 32 00 5D 00 41 7E
   162.000000 1  100             Rx   d 8 50 00 32 00 5D 00 41 7E
   163.000000 1  100             Rx   d 8 50 00 32 00 5D 00 41 7E
   164.000000 1  100             Rx   d 8 50 00 32 00 5D 00 41 7E
   165.000000 1  100             Rx   d 8 50 00 32 00 5D 00 41 7E
   165.000000 1  101             Rx   d 8 48 0F 1F 10 64 00 00 00
   166.000000 1  100             Rx   d 8 50 00 32 00 5D 00 41 7E
   167.000000 1  100             Rx   d 8 50 00 32 00 5D 00 41 7E
   168.000000 1  100             Rx   d 8 50 00 32 00 5D 00 41 7E
   169.000000 1  100             Rx   d 8 50 00 32 00 5D 00 41 7E
   170.000000 1  100             Rx   d 8 50 00 32 00 5D 00 41 7E
   170.000000 1  101             Rx   d 8 45 0F 1F 10 64 00 00 00
   171.000000 1  100             Rx   d 8 50 00 32 00 5D 00 41 7E
   172.000000 1  100             Rx   d 8 50 00 32 00 5D 00 41 7E
   173.000000 1  100             Rx   d 8 50 00 32 00 5D 00 41 7E
   174.000000 1  100             Rx   d 8 50 00 32 00 5D 00 41 7E
   175.000000 1  100             Rx   d 8 50 00 32 00 5D 00 41 7E
   175.000000 1  101             Rx   d 8 42 0F 1F 10 64 00 00 00
   176.000000 1  100             Rx   d 8 50 00 32 00 5D 00 41 7E
   177.000000 1  100             Rx   d 8 50 00 32 00 5D 00 41 7E
   178.000000 1  100             Rx   d 8 50 00 32 00 5D 00 41 7E
   179.000000 1  100             Rx   d 8 50 00 32 00 5D 00 41 7E
   180.000000 1  100             Rx   d 8 50 00 32 00 5D 00 41 7E
   180.000000 1  101             Rx   d 8 3F 0F 1F 10 64 00 00 00
   181.000000 1  100             Rx   d 8 50 00 32 00 5D 00 41 7E
   182.000000 1  100             Rx   d 8 50 00 32 00 5D 00 41 7E
   183.000000 1  100             Rx   d 8 50 00 32 00 5D 00 41 7E
   184.000000 1  100             Rx   d 8 50 00 32 00 5D 00 41 7E
   185.000000 1  100             Rx   d 8 50 00 32 00 5D 00 41 7E
   185.000000 1  101             Rx   d 8 3C 0F 1F 10 64 00 00 00
   186.000000 1  100             Rx   d 8 50 00 32 00 5D 00 41 7E
   187.000000 1  100             Rx   d 8 50 00 32 00 5D 00 41 7E
   188.000000 1  100             Rx   d 8 50 00 32 00 5D 00 41 7E
   189.000000 1  100             Rx   d 8 50 00 32 00 5D 00 41 7E
   190.000000 1  100             Rx   d 8 50 00 32 00 5D 00 41 7E
   190.000000 1  101             Rx   d 8 39 0F 1E 10 64 00 00 00
   191.000000 1  100             Rx   d 8 50 00 32 00 5D 00 41 7E
   192.000000 1  100             Rx   d 8 50 00 32 00 5D 00 41 7E
   193.000000 1  100             Rx   d 8 50 00 32 00 5D 00 41 7E
   194.000000 1  100             Rx   d 8 50 00 32 00 5D 00 41 7E
   195.000000 1  100             Rx   d 8 50 00 32 00 5C 00 41 7F
   195.000000 1  101             Rx   d 8 36 0F 1E 10 64 00 00 00
   196.000000 1  100             Rx   d 8 50 00 32 00 5C 00 41 7F
   197.000000 1  100             Rx   d 8 50 00 32 00 5C 00 41 7F
   198.000000 1  100             Rx   d 8 50 00 32 00 5C 00 41 7F
   199.000000 1  100             Rx   d 8 50 00 32 00 5C 00 41 7F
   200.000000 1  100             Rx   d 8 50 00 32 00 5C 00 41 7F
   200.000000 1  101             Rx   d 8 33 0F 1D 10 64 00 00 00
   201.000000 1  100             Rx   d 8 50 00 32 00 5C 00 41 7F
   202.000000 1  100             Rx   d 8 50 00 32 00 5C 00 41 7F
   203.000000 1  100             Rx   d 8 50 00 32 00 5C 00 41 7F
   204.000000 1  100             Rx   d 8 50 00 32 00 5C 00 41 7F
   205.000000 1  100             Rx   d 8 50 00 32 00 5C 00 41 7F
   205.000000 1  101             Rx   d 8 31 0F 1C 10 64 00 00 00
   206.000000 1  100             Rx   d 8 50 00 32 00 5C 00 41 7F
   207.000000 1  100             Rx   d 8 50 00 32 00 5C 00 41 7F
   208.000000 1  100             Rx   d 8 50 00 32 00 5C 00 41 7F
   209.000000 1  100             Rx   d 8 50 00 32 00 5C 00 41 7F
   210.000000 1  100             Rx   d 8 50 00 32 00 5C 00 41 7F
   210.000000 1  101             Rx   d 8 2F 0F 1B 10 64 00 00 00
   211.000000 1  100             Rx   d 8 50 00 32 00 5C 00 41 7F
   212.000000 1  100             Rx   d 8 50 00 32 00 5C 00 41 7F
   213.000000 1  100             Rx   d 8 50 00 32 00 5C 00 41 7F
   214.000000 1  100             Rx   d 8 50 00 32 00 5C 00 41 7F
   215.000000 1  100             Rx   d 8 50 00 32 00 5C 00 41 7F
   215.000000 1  101             Rx   d 8 2C 0F 1A 10 64 00 00 00
   216.000000 1  100             Rx   d 8 50 00 32 00 5C 00 41 7F
   217.000000 1  100             Rx   d 8 50 00 32 00 5C 00 41 7F
   218.000000 1  100             Rx   d 8 50 00 32 00 5C 00 41 7F
   219.000000 1  100             Rx   d 8 50 00 32 00 5C 00 41 7F
   220.000000 1  100             Rx   d 8 50 00 32 00 5C 00 41 7F
   220.000000 1  101             Rx   d 8 2A 0F 19 10 64 00 00 00
   221.000000 1  100             Rx   d 8 50 00 32 00 5C 00 41 7F
   222.000000 1  100             Rx   d 8 50 00 32 00 5C 00 41 7F
   223.000000 1  100             Rx   d 8 50 00 32 00 5C 00 41 7F
   224.000000 1  100             Rx   d 8 50 00 32 00 5C 00 41 7F
   225.000000 1  100             Rx   d 8 50 00 32 00 5C 00 41 7F
   225.000000 1  101             Rx   d 8 28 0F 18 10 64 00 00 00
   226.000000 1  100             Rx   d 8 50 00 32 00 5C 00 41 7F
   227.000000 1  100             Rx   d 8 50 00 32 00 5C 00 41 7F
   228.000000 1  100             Rx   d 8 50 00 32 00 5C 00 41 7F
   229.000000 1  100             Rx   d 8 50 00 32 00 5C 00 41 7F
   230.000000 1  100             Rx   d 8 50 00 32 00 5C 00 41 7F
   230.000000 1  101             Rx   d 8 26 0F 16 10 64 00 00 00
   231.000000 1  100             Rx   d 8 50 00 32 00 5B 00 41 78
   232.000000 1  100             Rx   d 8 50 00 32 00 5B 00 41 78
   233.000000 1  100             Rx   d 8 50 00 32 00 5B 00 41 78
   234.000000 1  100             Rx   d 8 50 00 32 00 5B 00 41 78
   235.000000 1  100             Rx   d 8 50 00 32 00 5B 00 41 78
   235.000000 1  101             Rx   d 8 25 0F 15 10 64 00 00 00
   236.000000 1  100             Rx   d 8 50 00 32 00 5B 00 41 78
   237.000000 1  100             Rx   d 8 50 00 32 00 5B 00 41 78
   238.000000 1  100             Rx   d 8 50 00 32 00 5B 00 41 78
   239.000000 1  100             Rx   d 8 50 00 32 00 5B 00 41 78
   240.000000 1  100             Rx   d 8 50 00 32 00 5B 00 41 78
   240.000000 1  101             Rx   d 8 23 0F 13 10 64 00 00 00
   241.000000 1  100             Rx   d 8 50 00 32 00 5B 00 41 78
   242.000000 1  100             Rx   d 8 50 00 32 00 5B 00 41 78
   243.000000 1  100             Rx   d 8 50 00 32 00 5B 00 41 78
   244.000000 1  100             Rx   d 8 50 00 32 00 5B 00 41 78
   245.000000 1  100             Rx   d 8 50 00 32 00 5B 00 41 78
   245.000000 1  101             Rx   d 8 22 0F 11 10 64 00 00 00
   246.000000 1  100             Rx   d 8 50 00 32 00 5B 00 41 78
   247.000000 1  100             Rx   d 8 50 00 32 00 5B 00 41 78
   248.000000 1  100             Rx   d 8 50 00 32 00 5B 00 41 78
   249.000000 1  100             Rx   d 8 50 00 32 00 5B 00 41 78
   250.000000 1  100             Rx   d 8 50 00 32 00 5B 00 41 78
   250.000000 1  101             Rx   d 8 20 0F 0F 10 64 00 00 00
   251.000000 1  100             Rx   d 8 50 00 32 00 5B 00 41 78
   252.000000 1  100             Rx   d 8 50 00 32 00 5B 00 41 78
   253.000000 1  100             Rx   d 8 50 00 32 00 5B 00 41 78
   254.000000 1  100             Rx   d 8 50 00 32 00 5B 00 41 78
   255.000000 1  100             Rx   d 8 50 00 32 00 5B 00 41 78
   255.000000 1  101             Rx   d 8 1F 0F 0D 10 64 00 00 00
   256.000000 1  100             Rx   d 8 50 00 32 00 5B 00 41 78
   257.000000 1  100             Rx   d 8 50 00 32 00 5B 00 41 78
   258.000000 1  100             Rx   d 8 50 00 32 00 5B 00 41 78
   259.000000 1  100             Rx   d 8 50 00 32 00 5B 00 41 78
   260.000000 1  100             Rx   d 8 50 00 32 00 5B 00 41 78
   260.000000 1  101             Rx   d 8 1E 0F 0A 10 64 00 00 00
   261.000000 1  100             Rx   d 8 50 00 32 00 5B 00 41 78
   262.000000 1  100             Rx   d 8 50 00 32 00 5B 00 41 78
   263.000000 1  100             Rx   d 8 50 00 32 00 5B 00 41 78
   264.000000 1  100             Rx   d 8 50 00 32 00 5B 00 41 78
   265.000000 1  100             Rx   d 8 50 00 32 00 5B 00 41 78
   265.000000 1  101             Rx   d 8 1D 0F 08 10 64 00 00 00
   266.000000 1  100             Rx   d 8 50 00 32 00 5B 00 41 78
   267.000000 1  100             Rx   d 8 50 00 32 00 5A 00 41 79
   268.000000 1  100             Rx   d 8 50 00 32 00 5A 00 41 79
   269.000000 1  100             Rx   d 8 50 00 32 00 5A 00 41 79
   270.000000 1  100             Rx   d 8 50 00 32 00 5A 00 41 79
   270.000000 1  101             Rx   d 8 1D 0F 05 10 64 00 00 00
   271.000000 1  100             Rx   d 8 50 00 32 00 5A 00 41 79
   272.000000 1  100             Rx   d 8 50 00 32 00 5A 00 41 79
   273.000000 1  100             Rx   d 8 50 00 32 00 5A 00 41 79
   274.000000 1  100             Rx   d 8 50 00 32 00 5A 00 41 79
   275.000000 1  100             Rx   d 8 50 00 32 00 5A 00 41 79
   275.000000 1  101             Rx   d 8 1C 0F 03 10 64 00 00 00
   276.000000 1  100             Rx   d 8 50 00 32 00 5A 00 41 79
   277.000000 1  100             Rx   d 8 50 00 32 00 5A 00 41 79
   278.000000 1  100             Rx   d 8 50 00 32 00 5A 00 41 79
   279.000000 1  100             Rx   d 8 50 00 32 00 5A 00 41 79
   280.000000 1  100             Rx   d 8 50 00 32 00 5A 00 41 79
   280.000000 1  101             Rx   d 8 1B 0F 00 10 64 00 00 00
   281.000000 1  100             Rx   d 8 50 00 32 00 5A 00 41 79
   282.000000 1  100             Rx   d 8 50 00 32 00 5A 00 41 79
   283.000000 1  100             Rx   d 8 50 00 32 00 5A 00 41 79
   284.000000 1  100             Rx   d 8 50 00 32 00 5A 00 41 79
   285.000000 1  100             Rx   d 8 50 00 32 00 5A 00 41 79
   285.000000 1  101             Rx   d 8 1B 0F FD 0F 64 00 00 00
   286.000000 1  100             Rx   d 8 50 00 32 00 5A 00 41 79
   287.000000 1  100             Rx   d 8 50 00 32 00 5A 00 41 79
   288.000000 1  100             Rx   d 8 50 00 32 00 5A 00 41 79
   289.000000 1  100             Rx   d 8 50 00 32 00 5A 00 41 79
   290.000000 1  100             Rx   d 8 50 00 32 00 5A 00 41 79
   290.000000 1  101             Rx   d 8 1B 0F FA 0F 64 00 00 00
   291.000000 1  100             Rx   d 8 50 00 32 00 5A 00 41 79
   292.000000 1  100             Rx   d 8 50 00 32 00 5A 00 41 79
   293.000000 1  100             Rx   d 8 50 00 32 00 5A 00 41 79
   294.000000 1  100             Rx   d 8 50 00 32 00 5A 00 41 79
   295.000000 1  100             Rx   d 8 50 00 32 00 5A 00 41 79
   295.000000 1  101             Rx   d 8 1B 0F F7 0F 64 00 00 00
   296.000000 1  100             Rx   d 8 50 00 32 00 5A 00 41 79
   297.000000 1  100             Rx   d 8 50 00 32 00 5A 00 41 79
   298.000000 1  100             Rx   d 8 50 00 32 00 5A 00 41 79
   299.000000 1  100             Rx   d 8 50 00 32 00 5A 00 41 79
   300.000000 1  100             Rx   d 8 52 00 00 00 5C 00 41 4F
   300.000000 1  101             Rx   d 8 94 0F 74 10 64 00 00 00
   301.000000 1  100             Rx   d 8 52 00 00 00 5C 00 41 4F
   302.000000 1  100             Rx   d 8 52 00 00 00 5C 00 41 4F
   303.000000 1  100             Rx   d 8 52 00 00 00 5C 00 41 4F
   304.000000 1  100             Rx   d 8 52 00 00 00 5C 00 41 4F
   305.000000 1  100             Rx   d 8 52 00 00 00 5C 00 41 4F
   305.000000 1  101             Rx   d 8 96 0F 72 10 64 00 00 00
   306.000000 1  100             Rx   d 8 52 00 00 00 5C 00 41 4F
   307.000000 1  100             Rx   d 8 52 00 00 00 5C 00 41 4F
   308.000000 1  100             Rx   d 8 52 00 00 00 5C 00 41 4F
   309.000000 1  100             Rx   d 8 52 00 00 00 5C 00 41 4F
   310.000000 1  100             Rx   d 8 52 00 00 00 5C 00 41 4F
   310.000000 1  101             Rx   d 8 98 0F 70 10 64 00 00 00
   311.000000 1  100             Rx   d 8 52 00 00 00 5C 00 41 4F
   312.000000 1  100             Rx   d 8 52 00 00 00 5C 00 41 4F
   313.000000 1  100             Rx   d 8 52 00 00 00 5C 00 41 4F
   314.000000 1  100             Rx   d 8 52 00 00 00 5C 00 41 4F
   315.000000 1  100             Rx   d 8 52 00 00 00 5C 00 41 4F
   315.000000 1  101             Rx   d 8 9A 0F 6E 10 64 00 00 00
   316.000000 1  100             Rx   d 8 52 00 00 00 5C 00 41 4F
   317.000000 1  100             Rx   d 8 52 00 00 00 5C 00 41 4F
   318.000000 1  100             Rx   d 8 52 00 00 00 5C 00 41 4F
   319.000000 1  100             Rx   d 8 52 00 00 00 5C 00 41 4F
   320.000000 1  100             Rx   d 8 52 00 00 00 5C 00 41 4F
   320.000000 1  101             Rx   d 8 9C 0F 6C 10 64 00 00 00
   321.000000 1  100             Rx   d 8 52 00 00 00 5C 00 41 4F
   322.000000 1  100             Rx   d 8 52 00 00 00 5C 00 41 4F
   323.000000 1  100             Rx   d 8 52 00 00 00 5C 00 41 4F
   324.000000 1  100             Rx   d 8 52 00 00 00 5C 00 41 4F
   325.000000 1  100             Rx   d 8 52 00 00 00 5C 00 41 4F
   325.000000 1  101             Rx   d 8 9E 0F 6A 10 64 00 00 00
   326.000000 1  100             Rx   d 8 52 00 00 00 5C 00 41 4F
   327.000000 1  100             Rx   d 8 52 00 00 00 5C 00 41 4F
   328.000000 1  100             Rx   d 8 52 00 00 00 5C 00 41 4F
   329.000000 1  100             Rx   d 8 52 00 00 00 5C 00 41 4F
   330.000000 1  100             Rx   d 8 52 00 00 00 5C 00 41 4F
   330.000000 1  101             Rx   d 8 A1 0F 67 10 64 00 00 00
   331.000000 1  100             Rx   d 8 52 00 00 00 5C 00 41 4F
   332.000000 1  100             Rx   d 8 52 00 00 00 5C 00 41 4F
   333.000000 1  100             Rx   d 8 52 00 00 00 5C 00 41 4F
   334.000000 1  100             Rx   d 8 52 00 00 00 5C 00 41 4F
   335.000000 1  100             Rx   d 8 52 00 00 00 5C 00 41 4F
   335.000000 1  101             Rx   d 8 A3 0F 65 10 64 00 00 00
   336.000000 1  100             Rx   d 8 52 00 00 00 5C 00 41 4F
   337.000000 1  100             Rx   d 8 52 00 00 00 5C 00 41 4F
   338.000000 1  100             Rx   d 8 52 00 00 00 5C 00 41 4F
   339.000000 1  100             Rx   d 8 52 00 00 00 5C 00 41 4F
   340.000000 1  100             Rx   d 8 52 00 00 00 5C 00 41 4F
   340.000000 1  101             Rx   d 8 A6 0F 62 10 64 00 00 00
   341.000000 1  100             Rx   d 8 52 00 00 00 5C 00 41 4F
   342.000000 1  100             Rx   d 8 52 00 00 00 5C 00 41 4F
   343.000000 1  100             Rx   d 8 52 00 00 00 5C 00 41 4F
   344.000000 1  100             Rx   d 8 52 00 00 00 5C 00 41 4F
   345.000000 1  100             Rx   d 8 52 00 00 00 5C 00 41 4F
   345.000000 1  101             Rx   d 8 A8 0F 60 10 64 00 00 00
   346.000000 1  100             Rx   d 8 52 00 00 00 5C 00 41 4F
   347.000000 1  100             Rx   d 8 52 00 00 00 5C 00 41 4F
   348.000000 1  100             Rx   d 8 52 00 00 00 5C 00 41 4F
   349.000000 1  100             Rx   d 8 52 00 00 00 5C 00 41 4F
   350.000000 1  100             Rx   d 8 52 00 00 00 5C 00 41 4F
   350.000000 1  101             Rx   d 8 AB 0F 5D 10 64 00 00 00
   351.000000 1  100             Rx   d 8 52 00 00 00 5C 00 41 4F
   352.000000 1  100             Rx   d 8 52 00 00 00 5C 00 41 4F
   353.000000 1  100             Rx   d 8 52 00 00 00 5C 00 41 4F
   354.000000 1  100             Rx   d 8 52 00 00 00 5C 00 41 4F
   355.000000 1  100             Rx   d 8 52 00 00 00 5C 00 41 4F
   355.000000 1  101             Rx   d 8 AE 0F 5A 10 64 00 00 00
   356.000000 1  100             Rx   d 8 52 00 00 00 5C 00 41 4F
   357.000000 1  100             Rx   d 8 52 00 00 00 5C 00 41 4F
   358.000000 1  100             Rx   d 8 52 00 00 00 5C 00 41 4F
   359.000000 1  100             Rx   d 8 52 00 00 00 5C 00 41 4F
   360.000000 1  100             Rx   d 8 52 00 00 00 5C 00 41 4F
   360.000000 1  101             Rx   d 8 B1 0F 57 10 64 00 00 00
   361.000000 1  100             Rx   d 8 52 00 00 00 5C 00 41 4F
   362.000000 1  100             Rx   d 8 52 00 00 00 5C 00 41 4F
   363.000000 1  100             Rx   d 8 52 00 00 00 5C 00 41 4F
   364.000000 1  100             Rx   d 8 52 00 00 00 5C 00 41 4F
   365.000000 1  100             Rx   d 8 52 00 00 00 5C 00 41 4F
   365.000000 1  101             Rx   d 8 B4 0F 54 10 64 00 00 00
   366.000000 1  100             Rx   d 8 52 00 00 00 5C 00 41 4F
   367.000000 1  100             Rx   d 8 52 00 00 00 5C 00 41 4F
   368.000000 1  100             Rx   d 8 52 00 00 00 5C 00 41 4F
   369.000000 1  100             Rx   d 8 52 00 00 00 5C 00 41 4F
   370.000000 1  100             Rx   d 8 52 00 00 00 5C 00 41 4F
   370.000000 1  101             Rx   d 8 B7 0F 51 10 64 00 00 00
   371.000000 1  100             Rx   d 8 52 00 00 00 5C 00 41 4F
   372.000000 1  100             Rx   d 8 52 00 00 00 5C 00 41 4F
   373.000000 1  100             Rx   d 8 52 00 00 00 5C 00 41 4F
   374.000000 1  100             Rx   d 8 52 00 00 00 5C 00 41 4F
   375.000000 1  100             Rx   d 8 52 00 00 00 5C 00 41 4F
   375.000000 1  101             Rx   d 8 BA 0F 4E 10 64 00 00 00
   376.000000 1  100             Rx   d 8 52 00 00 00 5C 00 41 4F
   377.000000 1  100             Rx   d 8 52 00 00 00 5C 00 41 4F
   378.000000 1  100             Rx   d 8 52 00 00 00 5C 00 41 4F
   379.000000 1  100             Rx   d 8 52 00 00 00 5C 00 41 4F
   380.000000 1  100             Rx   d 8 52 00 00 00 5C 00 41 4F
   380.000000 1  101             Rx   d 8 BE 0F 4A 10 64 00 00 00
   381.000000 1  100             Rx   d 8 52 00 00 00 5C 00 41 4F
   382.000000 1  100             Rx   d 8 52 00 00 00 5C 00 41 4F
   383.000000 1  100             Rx   d 8 52 00 00 00 5C 00 41 4F
   384.000000 1  100             Rx   d 8 52 00 00 00 5C 00 41 4F
   385.000000 1  100             Rx   d 8 52 00 00 00 5C 00 41 4F
   385.000000 1  101             Rx   d 8 C1 0F 47 10 64 00 00 00
   386.000000 1  100             Rx   d 8 52 00 00 00 5C 00 41 4F
   387.000000 1  100             Rx   d 8 52 00 00 00 5C 00 41 4F
   388.000000 1  100             Rx   d 8 52 00 00 00 5C 00 41 4F
   389.000000 1  100             Rx   d 8 52 00 00 00 5C 00 41 4F
   390.000000 1  100             Rx   d 8 52 00 00 00 5C 00 41 4F
   390.000000 1  101             Rx   d 8 C5 0F 43 10 64 00 00 00
   391.000000 1  100             Rx   d 8 52 00 00 00 5C 00 41 4F
   392.000000 1  100             Rx   d 8 52 00 00 00 5C 00 41 4F
   393.000000 1  100             Rx   d 8 52 00 00 00 5C 00 41 4F
   394.000000 1  100             Rx   d 8 52 00 00 00 5C 00 41 4F
   395.000000 1  100             Rx   d 8 52 00 00 00 5C 00 41 4F
   395.000000 1  101             Rx   d 8 C8 0F 40 10 64 00 00 00
   396.000000 1  100             Rx   d 8 52 00 00 00 5C 00 41 4F
   397.000000 1  100             Rx   d 8 52 00 00 00 5C 00 41 4F
   398.000000 1  100             Rx   d 8 52 00 00 00 5C 00 41 4F
   399.000000 1  100             Rx   d 8 52 00 00 00 5C 00 41 4F
   400.000000 1  100             Rx   d 8 52 00 00 00 5C 00 41 4F
   400.000000 1  101             Rx   d 8 CC 0F 3C 10 64 00 00 00
   401.000000 1  100             Rx   d 8 52 00 00 00 5C 00 41 4F
   402.000000 1  100             Rx   d 8 52 00 00 00 5C 00 41 4F
   403.000000 1  100             Rx   d 8 52 00 00 00 5C 00 41 4F
   404.000000 1  100             Rx   d 8 52 00 00 00 5C 00 41 4F
   405.000000 1  100             Rx   d 8 52 00 00 00 5C 00 41 4F
   405.000000 1  101             Rx   d 8 CF 0F 39 10 64 00 00 00
   406.000000 1  100             Rx   d 8 52 00 00 00 5C 00 41 4F
   407.000000 1  100             Rx   d 8 52 00 00 00 5C 00 41 4F
   408.000000 1  100             Rx   d 8 52 00 00 00 5C 00 41 4F
   409.000000 1  100             Rx   d 8 52 00 00 00 5C 00 41 4F
   410.000000 1  100             Rx   d 8 52 00 00 00 5C 00 41 4F
   410.000000 1  101             Rx   d 8 D3 0F 35 10 64 00 00 00
   411.000000 1  100             Rx   d 8 52 00 00 00 5C 00 41 4F
   412.000000 1  100             Rx   d 8 52 00 00 00 5C 00 41 4F
   413.000000 1  100             Rx   d 8 52 00 00 00 5C 00 41 4F
   414.000000 1  100             Rx   d 8 52 00 00 00 5C 00 41 4F
   415.000000 1  100             Rx   d 8 52 00 00 00 5C 00 41 4F
   415.000000 1  101             Rx   d 8 D7 0F 31 10 64 00 00 00
   416.000000 1  100             Rx   d 8 52 00 00 00 5C 00 41 4F
   417.000000 1  100             Rx   d 8 52 00 00 00 5C 00 41 4F
   418.000000 1  100             Rx   d 8 52 00 00 00 5C 00 41 4F
   419.000000 1  100             Rx   d 8 52 00 00 00 5C 00 41 4F
   420.000000 1  100             Rx   d 8 52 00 00 00 5C 00 41 4F
   420.000000 1  101             Rx   d 8 DB 0F 2D 10 64 00 00 00
   421.000000 1  100             Rx   d 8 52 00 00 00 5C 00 41 4F
   422.000000 1  100             Rx   d 8 52 00 00 00 5C 00 41 4F
   423.000000 1  100             Rx   d 8 52 00 00 00 5C 00 41 4F
   424.000000 1  100             Rx   d 8 52 00 00 00 5C 00 41 4F
   425.000000 1  100             Rx   d 8 52 00 00 00 5C 00 41 4F
   425.000000 1  101             Rx   d 8 DF 0F 29 10 64 00 00 00
   426.000000 1  100             Rx   d 8 52 00 00 00 5C 00 41 4F
   427.000000 1  100             Rx   d 8 52 00 00 00 5C 00 41 4F
   428.000000 1  100             Rx   d 8 52 00 00 00 5C 00 41 4F
   429.000000 1  100             Rx   d 8 52 00 00 00 5C 00 41 4F
   430.000000 1  100             Rx   d 8 52 00 00 00 5C 00 41 4F
   430.000000 1  101             Rx   d 8 E3 0F 25 10 64 00 00 00
   431.000000 1  100             Rx   d 8 52 00 00 00 5C 00 41 4F
   432.000000 1  100             Rx   d 8 52 00 00 00 5C 00 41 4F
   433.000000 1  100             Rx   d 8 52 00 00 00 5C 00 41 4F
   434.000000 1  100             Rx   d 8 52 00 00 00 5C 00 41 4F
   435.000000 1  100             Rx   d 8 52 00 00 00 5C 00 41 4F
   435.000000 1  101             Rx   d 8 E7 0F 21 10 64 00 00 00
   436.000000 1  100             Rx   d 8 52 00 00 00 5C 00 41 4F
   437.000000 1  100             Rx   d 8 52 00 00 00 5C 00 41 4F
   438.000000 1  100             Rx   d 8 52 00 00 00 5C 00 41 4F
   439.000000 1  100             Rx   d 8 52 00 00 00 5C 00 41 4F
   440.000000 1  100             Rx   d 8 52 00 00 00 5C 00 41 4F
   440.000000 1  101             Rx   d 8 EB 0F 1D 10 64 00 00 00
   441.000000 1  100             Rx   d 8 52 00 00 00 5C 00 41 4F
   442.000000 1  100             Rx   d 8 52 00 00 00 5C 00 41 4F
   443.000000 1  100             Rx   d 8 52 00 00 00 5C 00 41 4F
   444.000000 1  100             Rx   d 8 52 00 00 00 5C 00 41 4F
   445.000000 1  100             Rx   d 8 52 00 00 00 5C 00 41 4F
   445.000000 1  101             Rx   d 8 EF 0F 19 10 64 00 00 00
   446.000000 1  100             Rx   d 8 52 00 00 00 5C 00 41 4F
   447.000000 1  100             Rx   d 8 52 00 00 00 5C 00 41 4F
   448.000000 1  100             Rx   d 8 52 00 00 00 5C 00 41 4F
   449.000000 1  100             Rx   d 8 52 00 00 00 5C 00 41 4F
   450.000000 1  100             Rx   d 8 52 00 00 00 5C 00 41 4F
   450.000000 1  101             Rx   d 8 F3 0F 15 10 64 00 00 00
   451.000000 1  100             Rx   d 8 52 00 00 00 5C 00 41 4F
   452.000000 1  100             Rx   d 8 52 00 00 00 5C 00 41 4F
   453.000000 1  100             Rx   d 8 52 00 00 00 5C 00 41 4F
   454.000000 1  100             Rx   d 8 52 00 00 00 5C 00 41 4F
   455.000000 1  100             Rx   d 8 52 00 00 00 5C 00 41 4F
   455.000000 1  101             Rx   d 8 F7 0F 11 10 64 00 00 00
   456.000000 1  100             Rx   d 8 52 00 00 00 5C 00 41 4F
   457.000000 1  100             Rx   d 8 52 00 00 00 5C 00 41 4F
   458.000000 1  100             Rx   d 8 52 00 00 00 5C 00 41 4F
   459.000000 1  100             Rx   d 8 52 00 00 00 5C 00 41 4F
   460.000000 1  100             Rx   d 8 52 00 00 00 5C 00 41 4F
   460.000000 1  101             Rx   d 8 FB 0F 0D 10 64 00 00 00
   461.000000 1  100             Rx   d 8 52 00 00 00 5C 00 41 4F
   462.000000 1  100             Rx   d 8 52 00 00 00 5C 00 41 4F
   463.000000 1  100             Rx   d 8 52 00 00 00 5C 00 41 4F
   464.000000 1  100             Rx   d 8 52 00 00 00 5C 00 41 4F
   465.000000 1  100             Rx   d 8 52 00 00 00 5C 00 41 4F
   465.000000 1  101             Rx   d 8 FF 0F 09 10 64 00 00 00
   466.000000 1  100             Rx   d 8 52 00 00 00 5C 00 41 4F
   467.000000 1  100             Rx   d 8 52 00 00 00 5C 00 41 4F
   468.000000 1  100             Rx   d 8 52 00 00 00 5C 00 41 4F
   469.000000 1  100             Rx   d 8 52 00 00 00 5C 00 41 4F
   470.000000 1  100             Rx   d 8 52 00 00 00 5C 00 41 4F
   470.000000 1  101             Rx   d 8 03 10 05 10 64 00 00 00
   471.000000 1  100             Rx   d 8 52 00 00 00 5C 00 41 4F
   472.000000 1  100             Rx   d 8 52 00 00 00 5C 00 41 4F
   473.000000 1  100             Rx   d 8 52 00 00 00 5C 00 41 4F
   474.000000 1  100             Rx   d 8 52 00 00 00 5C 00 41 4F
   475.000000 1  100             Rx   d 8 52 00 00 00 5C 00 41 4F
   475.000000 1  101             Rx   d 8 07 10 01 10 64 00 00 00
   476.000000 1  100             Rx   d 8 52 00 00 00 5C 00 41 4F
   477.000000 1  100             Rx   d 8 52 00 00 00 5C 00 41 4F
   478.000000 1  100             Rx   d 8 52 00 00 00 5C 00 41 4F
   479.000000 1  100             Rx   d 8 52 00 00 00 5C 00 41 4F
   480.000000 1  100             Rx   d 8 52 00 00 00 5C 00 41 4F
   480.000000 1  101             Rx   d 8 0B 10 FD 0F 64 00 00 00
   481.000000 1  100             Rx   d 8 52 00 00 00 5C 00 41 4F
   482.000000 1  100             Rx   d 8 52 00 00 00 5C 00 41 4F
   483.000000 1  100             Rx   d 8 52 00 00 00 5C 00 41 4F
   484.000000 1  100             Rx   d 8 52 00 00 00 5C 00 41 4F
   485.000000 1  100             Rx   d 8 52 00 00 00 5C 00 41 4F
   485.000000 1  101             Rx   d 8 0F 10 F9 0F 64 00 00 00
   486.000000 1  100             Rx   d 8 52 00 00 00 5C 00 41 4F
   487.000000 1  100             Rx   d 8 52 00 00 00 5C 00 41 4F
   488.000000 1  100             Rx   d 8 52 00 00 00 5C 00 41 4F
   489.000000 1  100             Rx   d 8 52 00 00 00 5C 00 41 4F
   490.000000 1  100             Rx   d 8 52 00 00 00 5C 00 41 4F
   490.000000 1  101             Rx   d 8 13 10 F5 0F 64 00 00 00
   491.000000 1  100             Rx   d 8 52 00 00 00 5C 00 41 4F
   492.000000 1  100             Rx   d 8 52 00 00 00 5C 00 41 4F
   493.000000 1  100             Rx   d 8 52 00 00 00 5C 00 41 4F
   494.000000 1  100             Rx   d 8 52 00 00 00 5C 00 41 4F
   495.000000 1  100             Rx   d 8 52 00 00 00 5C 00 41 4F
   495.000000 1  101             Rx   d 8 17 10 F1 0F 64 00 00 00
   496.000000 1  100             Rx   d 8 52 00 00 00 5C 00 41 4F
   497.000000 1  100             Rx   d 8 52 00 00 00 5C 00 41 4F
   498.000000 1  100             Rx   d 8 52 00 00 00 5C 00 41 4F
   499.000000 1  100             Rx   d 8 52 00 00 00 5C 00 41 4F
   500.000000 1  100             Rx   d 8 52 00 00 00 5C 00 41 4F
   500.000000 1  101             Rx   d 8 1B 10 ED 0F 64 00 00 00
   501.000000 1  100             Rx   d 8 52 00 00 00 5C 00 41 4F
   502.000000 1  100             Rx   d 8 52 00 00 00 5C 00 41 4F
   503.000000 1  100             Rx   d 8 52 00 00 00 5C 00 41 4F
   504.000000 1  100             Rx   d 8 52 00 00 00 5C 00 41 4F
   505.000000 1  100             Rx   d 8 52 00 00 00 5C 00 41 4F
   505.000000 1  101             Rx   d 8 1F 10 E9 0F 64 00 00 00
   506.000000 1  100             Rx   d 8 52 00 00 00 5C 00 41 4F
   507.000000 1  100             Rx   d 8 52 00 00 00 5C 00 41 4F
   508.000000 1  100             Rx   d 8 52 00 00 00 5C 00 41 4F
   509.000000 1  100             Rx   d 8 52 00 00 00 5C 00 41 4F
   510.000000 1  100             Rx   d 8 52 00 00 00 5C 00 41 4F
   510.000000 1  101             Rx   d 8 23 10 E5 0F 64 00 00 00
   511.000000 1  100             Rx   d 8 52 00 00 00 5C 00 41 4F
   512.000000 1  100             Rx   d 8 52 00 00 00 5C 00 41 4F
   513.000000 1  100             Rx   d 8 52 00 00 00 5C 00 41 4F
   514.000000 1  100             Rx   d 8 52 00 00 00 5C 00 41 4F
   515.000000 1  100             Rx   d 8 52 00 00 00 5C 00 41 4F
   515.000000 1  101             Rx   d 8 27 10 E1 0F 64 00 00 00
   516.000000 1  100             Rx   d 8 52 00 00 00 5C 00 41 4F
   517.000000 1  100             Rx   d 8 52 00 00 00 5C 00 41 4F
   518.000000 1  100             Rx   d 8 52 00 00 00 5C 00 41 4F
   519.000000 1  100             Rx   d 8 52 00 00 00 5C 00 41 4F
   520.000000 1  100             Rx   d 8 52 00 00 00 5C 00 41 4F
   520.000000 1  101             Rx   d 8 2B 10 DD 0F 64 00 00 00
   521.000000 1  100             Rx   d 8 52 00 00 00 5C 00 41 4F
   522.000000 1  100             Rx   d 8 52 00 00 00 5C 00 41 4F
   523.000000 1  100             Rx   d 8 52 00 00 00 5C 00 41 4F
   524.000000 1  100             Rx   d 8 52 00 00 00 5C 00 41 4F
   525.000000 1  100             Rx   d 8 52 00 00 00 5C 00 41 4F
   525.000000 1  101             Rx   d 8 2F 10 D9 0F 64 00 00 00
   526.000000 1  100             Rx   d 8 52 00 00 00 5C 00 41 4F
   527.000000 1  100             Rx   d 8 52 00 00 00 5C 00 41 4F
   528.000000 1  100             Rx   d 8 52 00 00 00 5C 00 41 4F
   529.000000 1  100             Rx   d 8 52 00 00 00 5C 00 41 4F
   530.000000 1  100             Rx   d 8 52 00 00 00 5C 00 41 4F
   530.000000 1  101             Rx   d 8 33 10 D5 0F 64 00 00 00
   531.000000 1  100             Rx   d 8 52 00 00 00 5C 00 41 4F
   532.000000 1  100             Rx   d 8 52 00 00 00 5C 00 41 4F
   533.000000 1  100             Rx   d 8 52 00 00 00 5C 00 41 4F
   534.000000 1  100             Rx   d 8 52 00 00 00 5C 00 41 4F
   535.000000 1  100             Rx   d 8 52 00 00 00 5C 00 41 4F
   535.000000 1  101             Rx   d 8 37 10 D1 0F 64 00 00 00
   536.000000 1  100             Rx   d 8 52 00 00 00 5C 00 41 4F
   537.000000 1  100             Rx   d 8 52 00 00 00 5C 00 41 4F
   538.000000 1  100             Rx   d 8 52 00 00 00 5C 00 41 4F
   539.000000 1  100             Rx   d 8 52 00 00 00 5C 00 41 4F
   540.000000 1  100             Rx   d 8 52 00 00 00 5C 00 41 4F
   540.000000 1  101             Rx   d 8 3A 10 CE 0F 64 00 00 00
   541.000000 1  100             Rx   d 8 52 00 00 00 5C 00 41 4F
   542.000000 1  100             Rx   d 8 52 00 00 00 5C 00 41 4F
   543.000000 1  100             Rx   d 8 52 00 00 00 5C 00 41 4F
   544.000000 1  100             Rx   d 8 52 00 00 00 5C 00 41 4F
   545.000000 1  100             Rx   d 8 52 00 00 00 5C 00 41 4F
   545.000000 1  101             Rx   d 8 3E 10 CA 0F 64 00 00 00
   546.000000 1  100             Rx   d 8 52 00 00 00 5C 00 41 4F
   547.000000 1  100             Rx   d 8 52 00 00 00 5C 00 41 4F
   548.000000 1  100             Rx   d 8 52 00 00 00 5C 00 41 4F
   549.000000 1  100             Rx   d 8 52 00 00 00 5C 00 41 4F
   550.000000 1  100             Rx   d 8 52 00 00 00 5C 00 41 4F
   550.000000 1  101             Rx   d 8 42 10 C6 0F 64 00 00 00
   551.000000 1  100             Rx   d 8 52 00 00 00 5C 00 41 4F
   552.000000 1  100             Rx   d 8 52 00 00 00 5C 00 41 4F
   553.000000 1  100             Rx   d 8 52 00 00 00 5C 00 41 4F
   554.000000 1  100             Rx   d 8 52 00 00 00 5C 00 41 4F
   555.000000 1  100             Rx   d 8 52 00 00 00 5C 00 41 4F
   555.000000 1  101             Rx   d 8 45 10 C3 0F 64 00 00 00
   556.000000 1  100             Rx   d 8 52 00 00 00 5C 00 41 4F
   557.000000 1  100             Rx   d 8 52 00 00 00 5C 00 41 4F
   558.000000 1  100             Rx   d 8 52 00 00 00 5C 00 41 4F
   559.000000 1  100             Rx   d 8 52 00 00 00 5C 00 41 4F
   560.000000 1  100             Rx   d 8 52 00 00 00 5C 00 41 4F
   560.000000 1  101             Rx   d 8 49 10 BF 0F 64 00 00 00
   561.000000 1  100             Rx   d 8 52 00 00 00 5C 00 41 4F
   562.000000 1  100             Rx   d 8 52 00 00 00 5C 00 41 4F
   563.000000 1  100             Rx   d 8 52 00 00 00 5C 00 41 4F
   564.000000 1  100             Rx   d 8 52 00 00 00 5C 00 41 4F
   565.000000 1  100             Rx   d 8 52 00 00 00 5C 00 41 4F
   565.000000 1  101             Rx   d 8 4C 10 BC 0F 64 00 00 00
   566.000000 1  100             Rx   d 8 52 00 00 00 5C 00 41 4F
   567.000000 1  100             Rx   d 8 52 00 00 00 5C 00 41 4F
   568.000000 1  100             Rx   d 8 52 00 00 00 5C 00 41 4F
   569.000000 1  100             Rx   d 8 52 00 00 00 5C 00 41 4F
   570.000000 1  100             Rx   d 8 52 00 00 00 5C 00 41 4F
   570.000000 1  101             Rx   d 8 4F 10 B9 0F 64 00 00 00
   571.000000 1  100             Rx   d 8 52 00 00 00 5C 00 41 4F
   572.000000 1  100             Rx   d 8 52 00 00 00 5C 00 41 4F
   573.000000 1  100             Rx   d 8 52 00 00 00 5C 00 41 4F
   574.000000 1  100             Rx   d 8 52 00 00 00 5C 00 41 4F
   575.000000 1  100             Rx   d 8 52 00 00 00 5C 00 41 4F
   575.000000 1  101             Rx   d 8 52 10 B6 0F 64 00 00 00
   576.000000 1  100             Rx   d 8 52 00 00 00 5C 00 41 4F
   577.000000 1  100             Rx   d 8 52 00 00 00 5C 00 41 4F
   578.000000 1  100             Rx   d 8 52 00 00 00 5C 00 41 4F
   579.000000 1  100             Rx   d 8 52 00 00 00 5C 00 41 4F
   580.000000 1  100             Rx   d 8 52 00 00 00 5C 00 41 4F
   580.000000 1  101             Rx   d 8 56 10 B2 0F 64 00 00 00
   581.000000 1  100             Rx   d 8 52 00 00 00 5C 00 41 4F
   582.000000 1  100             Rx   d 8 52 00 00 00 5C 00 41 4F
   583.000000 1  100             Rx   d 8 52 00 00 00 5C 00 41 4F
   584.000000 1  100             Rx   d 8 52 00 00 00 5C 00 41 4F
   585.000000 1  100             Rx   d 8 52 00 00 00 5C 00 41 4F
   585.000000 1  101             Rx   d 8 59 10 AF 0F 64 00 00 00
   586.000000 1  100             Rx   d 8 52 00 00 00 5C 00 41 4F
   587.000000 1  100             Rx   d 8 52 00 00 00 5C 00 41 4F
   588.000000 1  100             Rx   d 8 52 00 00 00 5C 00 41 4F
   589.000000 1  100             Rx   d 8 52 00 00 00 5C 00 41 4F
   590.000000 1  100             Rx   d 8 52 00 00 00 5C 00 41 4F
   590.000000 1  101             Rx   d 8 5C 10 AC 0F 64 00 00 00
   591.000000 1  100             Rx   d 8 52 00 00 00 5C 00 41 4F
   592.000000 1  100             Rx   d 8 52 00 00 00 5C 00 41 4F
   593.000000 1  100             Rx   d 8 52 00 00 00 5C 00 41 4F
   594.000000 1  100             Rx   d 8 52 00 00 00 5C 00 41 4F
   595.000000 1  100             Rx   d 8 52 00 00 00 5C 00 41 4F
   595.000000 1  101             Rx   d 8 5E 10 AA 0F 64 00 00 00
   596.000000 1  100             Rx   d 8 52 00 00 00 5C 00 41 4F
   597.000000 1  100             Rx   d 8 52 00 00 00 5C 00 41 4F
   598.000000 1  100             Rx   d 8 52 00 00 00 5C 00 41 4F
   599.000000 1  100             Rx   d 8 52 00 00 00 5C 00 41 4F
   600.000000 1  100             Rx   d 8 54 00 E2 FF 5D 00 41 55
   600.000000 1  101             Rx   d 8 AE 10 F0 0F 64 00 00 00
   601.000000 1  100             Rx   d 8 54 00 E2 FF 5D 00 41 55
   602.000000 1  100             Rx   d 8 54 00 E2 FF 5D 00 41 55
   603.000000 1  100             Rx   d 8 54 00 E2 FF 5D 00 41 55
   604.000000 1  100             Rx   d 8 54 00 E2 FF 5D 00 41 55
   605.000000 1  100             Rx   d 8 54 00 E2 FF 5D 00 41 55
   605.000000 1  101             Rx   d 8 B2 10 EF 0F 64 00 00 00
   606.000000 1  100             Rx   d 8 54 00 E2 FF 5D 00 41 55
   607.000000 1  100             Rx   d 8 54 00 E2 FF 5D 00 41 55
   608.000000 1  100             Rx   d 8 54 00 E2 FF 5D 00 41 55
   609.000000 1  100             Rx   d 8 54 00 E2 FF 5D 00 41 55
   610.000000 1  100             Rx   d 8 54 00 E2 FF 5D 00 41 55
   610.000000 1  101             Rx   d 8 B5 10 ED 0F 64 00 00 00
   611.000000 1  100             Rx   d 8 54 00 E2 FF 5D 00 41 55
   612.000000 1  100             Rx   d 8 54 00 E2 FF 5D 00 41 55
   613.000000 1  100             Rx   d 8 54 00 E2 FF 5D 00 41 55
   614.000000 1  100             Rx   d 8 54 00 E2 FF 5D 00 41 55
   615.000000 1  100             Rx   d 8 54 00 E2 FF 5D 00 41 55
   615.000000 1  101             Rx   d 8 B9 10 EB 0F 64 00 00 00
   616.000000 1  100             Rx   d 8 54 00 E2 FF 5D 00 41 55
   617.000000 1  100             Rx   d 8 54 00 E2 FF 5D 00 41 55
   618.000000 1  100             Rx   d 8 54 00 E2 FF 5D 00 41 55
   619.000000 1  100             Rx   d 8 54 00 E2 FF 5D 00 41 55
   620.000000 1  100             Rx   d 8 54 00 E2 FF 5D 00 41 55
   620.000000 1  101             Rx   d 8 BC 10 EA 0F 64 00 00 00
   621.000000 1  100             Rx   d 8 54 00 E2 FF 5D 00 41 55
   622.000000 1  100             Rx   d 8 54 00 E2 FF 5D 00 41 55
   623.000000 1  100             Rx   d 8 54 00 E2 FF 5D 00 41 55
   624.000000 1  100             Rx   d 8 54 00 E2 FF 5D 00 41 55
   625.000000 1  100             Rx   d 8 54 00 E2 FF 5D 00 41 55
   625.000000 1  101             Rx   d 8 BF 10 E9 0F 64 00 00 00
   626.000000 1  100             Rx   d 8 54 00 E2 FF 5D 00 41 55
   627.000000 1  100             Rx   d 8 54 00 E2 FF 5D 00 41 55
   628.000000 1  100             Rx   d 8 54 00 E2 FF 5D 00 41 55
   629.000000 1  100             Rx   d 8 54 00 E2 FF 5D 00 41 55
   630.000000 1  100             Rx   d 8 54 00 E2 FF 5D 00 41 55
   630.000000 1  101             Rx   d 8 C2 10 E8 0F 64 00 00 00
   631.000000 1  100             Rx   d 8 54 00 E2 FF 5D 00 41 55
   632.000000 1  100             Rx   d 8 54 00 E2 FF 5D 00 41 55
   633.000000 1  100             Rx   d 8 54 00 E2 FF 5D 00 41 55
   634.000000 1  100             Rx   d 8 54 00 E2 FF 5D 00 41 55
   635.000000 1  100             Rx   d 8 54 00 E2 FF 5E 00 41 56
   635.000000 1  101             Rx   d 8 C5 10 E7 0F 64 00 00 00
   636.000000 1  100             Rx   d 8 54 00 E2 FF 5E 00 41 56
   637.000000 1  100             Rx   d 8 54 00 E2 FF 5E 00 41 56
   638.000000 1  100             Rx   d 8 54 00 E2 FF 5E 00 41 56
   639.000000 1  100             Rx   d 8 54 00 E2 FF 5E 00 41 56
   640.000000 1  100             Rx   d 8 54 00 E2 FF 5E 00 41 56
   640.000000 1  101             Rx   d 8 C8 10 E6 0F 64 00 00 00
   641.000000 1  100             Rx   d 8 54 00 E2 FF 5E 00 41 56
   642.000000 1  100             Rx   d 8 54 00 E2 FF 5E 00 41 56
   643.000000 1  100             Rx   d 8 54 00 E2 FF 5E 00 41 56
   644.000000 1  100             Rx   d 8 54 00 E2 FF 5E 00 41 56
   645.000000 1  100             Rx   d 8 54 00 E2 FF 5E 00 41 56
   645.000000 1  101             Rx   d 8 CB 10 E5 0F 64 00 00 00
   646.000000 1  100             Rx   d 8 54 00 E2 FF 5E 00 41 56
   647.000000 1  100             Rx   d 8 54 00 E2 FF 5E 00 41 56
   648.000000 1  100             Rx   d 8 54 00 E2 FF 5E 00 41 56
   649.000000 1  100             Rx   d 8 54 00 E2 FF 5E 00 41 56
   650.000000 1  100             Rx   d 8 54 00 E2 FF 5E 00 41 56
   650.000000 1  101             Rx   d 8 CE 10 E4 0F 64 00 00 00
   651.000000 1  100             Rx   d 8 54 00 E2 FF 5E 00 41 56
   652.000000 1  100             Rx   d 8 54 00 E2 FF 5E 00 41 56
   653.000000 1  100             Rx   d 8 54 00 E2 FF 5E 00 41 56
   654.000000 1  100             Rx   d 8 54 00 E2 FF 5E 00 41 56
   655.000000 1  100             Rx   d 8 54 00 E2 FF 5E 00 41 56
   655.000000 1  101             Rx   d 8 D0 10 E4 0F 64 00 00 00
   656.000000 1  100             Rx   d 8 54 00 E2 FF 5E 00 41 56
   657.000000 1  100             Rx   d 8 54 00 E2 FF 5E 00 41 56
   658.000000 1  100             Rx   d 8 54 00 E2 FF 5E 00 41 56
   659.000000 1  100             Rx   d 8 54 00 E2 FF 5E 00 41 56
   660.000000 1  100             Rx   d 8 54 00 E2 FF 5E 00 41 56
   660.000000 1  101             Rx   d 8 D3 10 E3 0F 64 00 00 00
   661.000000 1  100             Rx   d 8 54 00 E2 FF 5E 00 41 56
   662.000000 1  100             Rx   d 8 54 00 E2 FF 5E 00 41 56
   663.000000 1  100             Rx   d 8 54 00 E2 FF 5E 00 41 56
   664.000000 1  100             Rx   d 8 54 00 E2 FF 5E 00 41 56
   665.000000 1  100             Rx   d 8 54 00 E2 FF 5E 00 41 56
   665.000000 1  101             Rx   d 8 D5 10 E3 0F 64 00 00 00
   666.000000 1  100             Rx   d 8 54 00 E2 FF 5E 00 41 56
   667.000000 1  100             Rx   d 8 54 00 E2 FF 5E 00 41 56
   668.000000 1  100             Rx   d 8 54 00 E2 FF 5E 00 41 56
   669.000000 1  100             Rx   d 8 54 00 E2 FF 5E 00 41 56
   670.000000 1  100             Rx   d 8 54 00 E2 FF 5E 00 41 56
   670.000000 1  101             Rx   d 8 D7 10 E3 0F 64 00 00 00
   671.000000 1  100             Rx   d 8 54 00 E2 FF 5E 00 41 56
   672.000000 1  100             Rx   d 8 54 00 E2 FF 5E 00 41 56
   673.000000 1  100             Rx   d 8 54 00 E2 FF 5E 00 41 56
   674.000000 1  100             Rx   d 8 54 00 E2 FF 5E 00 41 56
   675.000000 1  100             Rx   d 8 54 00 E2 FF 5E 00 41 56
   675.000000 1  101             Rx   d 8 D9 10 E3 0F 64 00 00 00
   676.000000 1  100             Rx   d 8 54 00 E2 FF 5E 00 41 56
   677.000000 1  100             Rx   d 8 54 00 E2 FF 5E 00 41 56
   678.000000 1  100             Rx   d 8 54 00 E2 FF 5E 00 41 56
   679.000000 1  100             Rx   d 8 54 00 E2 FF 5E 00 41 56
   680.000000 1  100             Rx   d 8 54 00 E2 FF 5E 00 41 56
   680.000000 1  101             Rx   d 8 DB 10 E3 0F 64 00 00 00
   681.000000 1  100             Rx   d 8 54 00 E2 FF 5E 00 41 56
   682.000000 1  100             Rx   d 8 54 00 E2 FF 5E 00 41 56
   683.000000 1  100             Rx   d 8 54 00 E2 FF 5E 00 41 56
   684.000000 1  100             Rx   d 8 54 00 E2 FF 5E 00 41 56
   685.000000 1  100             Rx   d 8 54 00 E2 FF 5E 00 41 56
   685.000000 1  101             Rx   d 8 DC 10 E4 0F 64 00 00 00
   686.000000 1  100             Rx   d 8 54 00 E2 FF 5E 00 41 56
   687.000000 1  100             Rx   d 8 54 00 E2 FF 5E 00 41 56
   688.000000 1  100             Rx   d 8 54 00 E2 FF 5E 00 41 56
   689.000000 1  100             Rx   d 8 54 00 E2 FF 5E 00 41 56
   690.000000 1  100             Rx   d 8 54 00 E2 FF 5E 00 41 56
   690.000000 1  101             Rx   d 8 DE 10 E4 0F 64 00 00 00
   691.000000 1  100             Rx   d 8 54 00 E2 FF 5E 00 41 56
   692.000000 1  100             Rx   d 8 54 00 E2 FF 5E 00 41 56
   693.000000 1  100             Rx   d 8 54 00 E2 FF 5E 00 41 56
   694.000000 1  100             Rx   d 8 54 00 E2 FF 5E 00 41 56
   695.000000 1  100             Rx   d 8 54 00 E2 FF 5F 00 41 57
   695.000000 1  101             Rx   d 8 DF 10 E5 0F 64 00 00 00
   696.000000 1  100             Rx   d 8 54 00 E2 FF 5F 00 41 57
   697.000000 1  100             Rx   d 8 54 00 E2 FF 5F 00 41 57
   698.000000 1  100             Rx   d 8 54 00 E2 FF 5F 00 41 57
   699.000000 1  100             Rx   d 8 54 00 E2 FF 5F 00 41 57
   700.000000 1  100             Rx   d 8 54 00 E2 FF 5F 00 41 57
   700.000000 1  101             Rx   d 8 E1 10 E5 0F 64 00 00 00
   701.000000 1  100             Rx   d 8 54 00 E2 FF 5F 00 41 57
   702.000000 1  100             Rx   d 8 54 00 E2 FF 5F 00 41 57
   703.000000 1  100             Rx   d 8 54 00 E2 FF 5F 00 41 57
   704.000000 1  100             Rx   d 8 54 00 E2 FF 5F 00 41 57
   705.000000 1  100             Rx   d 8 54 00 E2 FF 5F 00 41 57
   705.000000 1  101             Rx   d 8 E2 10 E6 0F 64 00 00 00
   706.000000 1  100             Rx   d 8 54 00 E2 FF 5F 00 41 57
   707.000000 1  100             Rx   d 8 54 00 E2 FF 5F 00 41 57
   708.000000 1  100             Rx   d 8 54 00 E2 FF 5F 00 41 57
   709.000000 1  100             Rx   d 8 54 00 E2 FF 5F 00 41 57
   710.000000 1  100             Rx   d 8 54 00 E2 FF 5F 00 41 57
   710.000000 1  101             Rx   d 8 E3 10 E7 0F 64 00 00 00
   711.000000 1  100             Rx   d 8 54 00 E2 FF 5F 00 41 57
   712.000000 1  100             Rx   d 8 54 00 E2 FF 5F 00 41 57
   713.000000 1  100             Rx   d 8 54 00 E2 FF 5F 00 41 57
   714.000000 1  100             Rx   d 8 54 00 E2 FF 5F 00 41 57
   715.000000 1  100             Rx   d 8 54 00 E2 FF 5F 00 41 57
   715.000000 1  101             Rx   d 8 E4 10 E8 0F 64 00 00 00
   716.000000 1  100             Rx   d 8 54 00 E2 FF 5F 00 41 57
   717.000000 1  100             Rx   d 8 54 00 E2 FF 5F 00 41 57
   718.000000 1  100             Rx   d 8 54 00 E2 FF 5F 00 41 57
   719.000000 1  100             Rx   d 8 54 00 E2 FF 5F 00 41 57
   720.000000 1  100             Rx   d 8 54 00 E2 FF 5F 00 41 57
   720.000000 1  101             Rx   d 8 E5 10 EA 0F 64 00 00 00
   721.000000 1  100             Rx   d 8 54 00 E2 FF 5F 00 41 57
   722.000000 1  100             Rx   d 8 54 00 E2 FF 5F 00 41 57
   723.000000 1  100             Rx   d 8 54 00 E2 FF 5F 00 41 57
   724.000000 1  100             Rx   d 8 54 00 E2 FF 5F 00 41 57
   725.000000 1  100             Rx   d 8 54 00 E2 FF 5F 00 41 57
   725.000000 1  101             Rx   d 8 E5 10 EB 0F 64 00 00 00
   726.000000 1  100             Rx   d 8 54 00 E2 FF 5F 00 41 57
   727.000000 1  100             Rx   d 8 54 00 E2 FF 5F 00 41 57
   728.000000 1  100             Rx   d 8 54 00 E2 FF 5F 00 41 57
   729.000000 1  100             Rx   d 8 54 00 E2 FF 5F 00 41 57
   730.000000 1  100             Rx   d 8 54 00 E2 FF 5F 00 41 57
   730.000000 1  101             Rx   d 8 E6 10 EC 0F 64 00 00 00
   731.000000 1  100             Rx   d 8 54 00 E2 FF 5F 00 41 57
   732.000000 1  100             Rx   d 8 54 00 E2 FF 5F 00 41 57
   733.000000 1  100             Rx   d 8 54 00 E2 FF 5F 00 41 57
   734.000000 1  100             Rx   d 8 54 00 E2 FF 5F 00 41 57
   735.000000 1  100             Rx   d 8 54 00 E2 FF 5F 00 41 57
   735.000000 1  101             Rx   d 8 E6 10 EE 0F 64 00 00 00
   736.000000 1  100             Rx   d 8 54 00 E2 FF 5F 00 41 57
   737.000000 1  100             Rx   d 8 54 00 E2 FF 5F 00 41 57
   738.000000 1  100             Rx   d 8 54 00 E2 FF 5F 00 41 57
   739.000000 1  100             Rx   d 8 54 00 E2 FF 5F 00 41 57
   740.000000 1  100             Rx   d 8 54 00 E2 FF 5F 00 41 57
   740.000000 1  101             Rx   d 8 E6 10 F0 0F 64 00 00 00
   741.000000 1  100             Rx   d 8 54 00 E2 FF 5F 00 41 57
   742.000000 1  100             Rx   d 8 54 00 E2 FF 5F 00 41 57
   743.000000 1  100             Rx   d 8 54 00 E2 FF 5F 00 41 57
   744.000000 1  100             Rx   d 8 54 00 E2 FF 5F 00 41 57
   745.000000 1  100             Rx   d 8 54 00 E2 FF 5F 00 41 57
   745.000000 1  101             Rx   d 8 E6 10 F2 0F 64 00 00 00
   746.000000 1  100             Rx   d 8 54 00 E2 FF 5F 00 41 57
   747.000000 1  100             Rx   d 8 54 00 E2 FF 5F 00 41 57
   748.000000 1  100             Rx   d 8 54 00 E2 FF 5F 00 41 57
   749.000000 1  100             Rx   d 8 54 00 E2 FF 5F 00 41 57
   750.000000 1  100             Rx   d 8 54 00 E2 FF 5F 00 41 57
   750.000000 1  101             Rx   d 8 E6 10 F4 0F 64 00 00 00
   751.000000 1  100             Rx   d 8 54 00 E2 FF 5F 00 41 57
   752.000000 1  100             Rx   d 8 54 00 E2 FF 5F 00 41 57
   753.000000 1  100             Rx   d 8 54 00 E2 FF 5F 00 41 57
   754.000000 1  100             Rx   d 8 54 00 E2 FF 5F 00 41 57
   755.000000 1  100             Rx   d 8 54 00 E2 FF 5F 00 41 57
   755.000000 1  101             Rx   d 8 E6 10 F6 0F 64 00 00 00
   756.000000 1  100             Rx   d 8 54 00 E2 FF 5F 00 41 57
   757.000000 1  100             Rx   d 8 54 00 E2 FF 5F 00 41 57
   758.000000 1  100             Rx   d 8 54 00 E2 FF 5F 00 41 57
   759.000000 1  100             Rx   d 8 54 00 E2 FF 5F 00 41 57
   760.000000 1  100             Rx   d 8 54 00 E2 FF 5F 00 41 57
   760.000000 1  101             Rx   d 8 E5 10 F9 0F 64 00 00 00
   761.000000 1  100             Rx   d 8 54 00 E2 FF 5F 00 41 57
   762.000000 1  100             Rx   d 8 54 00 E2 FF 5F 00 41 57
   763.000000 1  100             Rx   d 8 54 00 E2 FF 60 00 41 68
   764.000000 1  100             Rx   d 8 54 00 E2 FF 60 00 41 68
   765.000000 1  100             Rx   d 8 54 00 E2 FF 60 00 41 68
   765.000000 1  101             Rx   d 8 E5 10 FB 0F 64 00 00 00
   766.000000 1  100             Rx   d 8 54 00 E2 FF 60 00 41 68
   767.000000 1  100             Rx   d 8 54 00 E2 FF 60 00 41 68
   768.000000 1  100             Rx   d 8 54 00 E2 FF 60 00 41 68
   769.000000 1  100             Rx   d 8 54 00 E2 FF 60 00 41 68
   770.000000 1  100             Rx   d 8 54 00 E2 FF 60 00 41 68
   770.000000 1  101             Rx   d 8 E4 10 FE 0F 64 00 00 00
   771.000000 1  100             Rx   d 8 54 00 E2 FF 60 00 41 68
   772.000000 1  100             Rx   d 8 54 00 E2 FF 60 00 41 68
   773.000000 1  100             Rx   d 8 54 00 E2 FF 60 00 41 68
   774.000000 1  100             Rx   d 8 54 00 E2 FF 60 00 41 68
   775.000000 1  100             Rx   d 8 54 00 E2 FF 60 00 41 68
   775.000000 1  101             Rx   d 8 E4 10 01 10 64 00 00 00
   776.000000 1  100             Rx   d 8 54 00 E2 FF 60 00 41 68
   777.000000 1  100             Rx   d 8 54 00 E2 FF 60 00 41 68
   778.000000 1  100             Rx   d 8 54 00 E2 FF 60 00 41 68
   779.000000 1  100             Rx   d 8 54 00 E2 FF 60 00 41 68
   780.000000 1  100             Rx   d 8 54 00 E2 FF 60 00 41 68
   780.000000 1  101             Rx   d 8 E3 10 03 10 64 00 00 00
   781.000000 1  100             Rx   d 8 54 00 E2 FF 60 00 41 68
   782.000000 1  100             Rx   d 8 54 00 E2 FF 60 00 41 68
   783.000000 1  100             Rx   d 8 54 00 E2 FF 60 00 41 68
   784.000000 1  100             Rx   d 8 54 00 E2 FF 60 00 41 68
   785.000000 1  100             Rx   d 8 54 00 E2 FF 60 00 41 68
   785.000000 1  101             Rx   d 8 E2 10 06 10 64 00 00 00
   786.000000 1  100             Rx   d 8 54 00 E2 FF 60 00 41 68
   787.000000 1  100             Rx   d 8 54 00 E2 FF 60 00 41 68
   788.000000 1  100             Rx   d 8 54 00 E2 FF 60 00 41 68
   789.000000 1  100             Rx   d 8 54 00 E2 FF 60 00 41 68
   790.000000 1  100             Rx   d 8 54 00 E2 FF 60 00 41 68
   790.000000 1  101             Rx   d 8 E0 10 0A 10 64 00 00 00
   791.000000 1  100             Rx   d 8 54 00 E2 FF 60 00 41 68
   792.000000 1  100             Rx   d 8 54 00 E2 FF 60 00 41 68
   793.000000 1  100             Rx   d 8 54 00 E2 FF 60 00 41 68
   794.000000 1  100             Rx   d 8 54 00 E2 FF 60 00 41 68
   795.000000 1  100             Rx   d 8 54 00 E2 FF 60 00 41 68
   795.000000 1  101             Rx   d 8 DF 10 0D 10 64 00 00 00
   796.000000 1  100             Rx   d 8 54 00 E2 FF 60 00 41 68
   797.000000 1  100             Rx   d 8 54 00 E2 FF 60 00 41 68
   798.000000 1  100             Rx   d 8 54 00 E2 FF 60 00 41 68
   799.000000 1  100             Rx   d 8 54 00 E2 FF 60 00 41 68
   800.000000 1  100             Rx   d 8 54 00 E2 FF 60 00 41 68
   800.000000 1  101             Rx   d 8 DE 10 10 10 64 00 00 00
   801.000000 1  100             Rx   d 8 54 00 E2 FF 60 00 41 68
   802.000000 1  100             Rx   d 8 54 00 E2 FF 60 00 41 68
   803.000000 1  100             Rx   d 8 54 00 E2 FF 60 00 41 68
   804.000000 1  100             Rx   d 8 54 00 E2 FF 60 00 41 68
   805.000000 1  100             Rx   d 8 54 00 E2 FF 60 00 41 68
   805.000000 1  101             Rx   d 8 DC 10 14 10 64 00 00 00
   806.000000 1  100             Rx   d 8 54 00 E2 FF 60 00 41 68
   807.000000 1  100             Rx   d 8 54 00 E2 FF 60 00 41 68
   808.000000 1  100             Rx   d 8 54 00 E2 FF 60 00 41 68
   809.000000 1  100             Rx   d 8 54 00 E2 FF 60 00 41 68
   810.000000 1  100             Rx   d 8 54 00 E2 FF 60 00 41 68
   810.000000 1  101             Rx   d 8 DB 10 17 10 64 00 00 00
   811.000000 1  100             Rx   d 8 54 00 E2 FF 60 00 41 68
   812.000000 1  100             Rx   d 8 54 00 E2 FF 60 00 41 68
   813.000000 1  100             Rx   d 8 54 00 E2 FF 60 00 41 68
   814.000000 1  100             Rx   d 8 54 00 E2 FF 60 00 41 68
   815.000000 1  100             Rx   d 8 54 00 E2 FF 60 00 41 68
   815.000000 1  101             Rx   d 8 D9 10 1B 10 64 00 00 00
   816.000000 1  100             Rx   d 8 54 00 E2 FF 60 00 41 68
   817.000000 1  100             Rx   d 8 54 00 E2 FF 60 00 41 68
   818.000000 1  100             Rx   d 8 54 00 E2 FF 60 00 41 68
   819.000000 1  100             Rx   d 8 54 00 E2 FF 60 00 41 68
   820.000000 1  100             Rx   d 8 54 00 E2 FF 60 00 41 68
   820.000000 1  101             Rx   d 8 D7 10 1F 10 64 00 00 00
   821.000000 1  100             Rx   d 8 54 00 E2 FF 60 00 41 68
   822.000000 1  100             Rx   d 8 54 00 E2 FF 60 00 41 68
   823.000000 1  100             Rx   d 8 54 00 E2 FF 60 00 41 68
   824.000000 1  100             Rx   d 8 54 00 E2 FF 60 00 41 68
   825.000000 1  100             Rx   d 8 54 00 E2 FF 60 00 41 68
   825.000000 1  101             Rx   d 8 D5 10 23 10 64 00 00 00
   826.000000 1  100             Rx   d 8 54 00 E2 FF 60 00 41 68
   827.000000 1  100             Rx   d 8 54 00 E2 FF 60 00 41 68
   828.000000 1  100             Rx   d 8 54 00 E2 FF 60 00 41 68
   829.000000 1  100             Rx   d 8 54 00 E2 FF 60 00 41 68
   830.000000 1  100             Rx   d 8 54 00 E2 FF 60 00 41 68
   830.000000 1  101             Rx   d 8 D3 10 27 10 64 00 00 00
   831.000000 1  100             Rx   d 8 54 00 E2 FF 60 00 41 68
   832.000000 1  100             Rx   d 8 54 00 E2 FF 60 00 41 68
   833.000000 1  100             Rx   d 8 54 00 E2 FF 60 00 41 68
   834.000000 1  100             Rx   d 8 54 00 E2 FF 60 00 41 68
   835.000000 1  100             Rx   d 8 54 00 E2 FF 60 00 41 68
   835.000000 1  101             Rx   d 8 D1 10 2B 10 64 00 00 00
   836.000000 1  100             Rx   d 8 54 00 E2 FF 60 00 41 68
   837.000000 1  100             Rx   d 8 54 00 E2 FF 60 00 41 68
   838.000000 1  100             Rx   d 8 54 00 E2 FF 61 00 41 69
   839.000000 1  100             Rx   d 8 54 00 E2 FF 61 00 41 69
   840.000000 1  100             Rx   d 8 54 00 E2 FF 61 00 41 69
   840.000000 1  101             Rx   d 8 CF 10 2F 10 64 00 00 00
   841.000000 1  100             Rx   d 8 54 00 E2 FF 61 00 41 69
   842.000000 1  100             Rx   d 8 54 00 E2 FF 61 00 41 69
   843.000000 1  100             Rx   d 8 54 00 E2 FF 61 00 41 69
   844.000000 1  100             Rx   d 8 54 00 E2 FF 61 00 41 69
   845.000000 1  100             Rx   d 8 54 00 E2 FF 61 00 41 69
   845.000000 1  101             Rx   d 8 CD 10 33 10 64 00 00 00
   846.000000 1  100             Rx   d 8 54 00 E2 FF 61 00 41 69
   847.000000 1  100             Rx   d 8 54 00 E2 FF 61 00 41 69
   848.000000 1  100             Rx   d 8 54 00 E2 FF 61 00 41 69
   849.000000 1  100             Rx   d 8 54 00 E2 FF 61 00 41 69
   850.000000 1  100             Rx   d 8 55 00 E2 FF 61 00 41 68
   850.000000 1  101             Rx   d 8 CA 10 38 10 64 00 00 00
   851.000000 1  100             Rx   d 8 55 00 E2 FF 61 00 41 68
   852.000000 1  100             Rx   d 8 55 00 E2 FF 61 00 41 68
   853.000000 1  100             Rx   d 8 55 00 E2 FF 61 00 41 68
   854.000000 1  100             Rx   d 8 55 00 E2 FF 61 00 41 68
   855.000000 1  100             Rx   d 8 55 00 E2 FF 61 00 41 68
   855.000000 1  101             Rx   d 8 C8 10 3C 10 64 00 00 00
   856.000000 1  100             Rx   d 8 55 00 E2 FF 61 00 41 68
   857.000000 1  100             Rx   d 8 55 00 E2 FF 61 00 41 68
   858.000000 1  100             Rx   d 8 55 00 E2 FF 61 00 41 68
   859.000000 1  100             Rx   d 8 55 00 E2 FF 61 00 41 68
   860.000000 1  100             Rx   d 8 55 00 E2 FF 61 00 41 68
   860.000000 1  101             Rx   d 8 C5 10 41 10 64 00 00 00
   861.000000 1  100             Rx   d 8 55 00 E2 FF 61 00 41 68
   862.000000 1  100             Rx   d 8 55 00 E2 FF 61 00 41 68
   863.000000 1  100             Rx   d 8 55 00 E2 FF 61 00 41 68
   864.000000 1  100             Rx   d 8 55 00 E2 FF 61 00 41 68
   865.000000 1  100             Rx   d 8 55 00 E2 FF 61 00 41 68
   865.000000 1  101             Rx   d 8 C3 10 45 10 64 00 00 00
   866.000000 1  100             Rx   d 8 55 00 E2 FF 61 00 41 68
   867.000000 1  100             Rx   d 8 55 00 E2 FF 61 00 41 68
   868.000000 1  100             Rx   d 8 55 00 E2 FF 61 00 41 68
   869.000000 1  100             Rx   d 8 55 00 E2 FF 61 00 41 68
   870.000000 1  100             Rx   d 8 55 00 E2 FF 61 00 41 68
   870.000000 1  101             Rx   d 8 C0 10 4A 10 64 00 00 00
   871.000000 1  100             Rx   d 8 55 00 E2 FF 61 00 41 68
   872.000000 1  100             Rx   d 8 55 00 E2 FF 61 00 41 68
   873.000000 1  100             Rx   d 8 55 00 E2 FF 61 00 41 68
   874.000000 1  100             Rx   d 8 55 00 E2 FF 61 00 41 68
   875.000000 1  100             Rx   d 8 55 00 E2 FF 61 00 41 68
   875.000000 1  101             Rx   d 8 BD 10 4F 10 64 00 00 00
   876.000000 1  100             Rx   d 8 55 00 E2 FF 61 00 41 68
   877.000000 1  100             Rx   d 8 55 00 E2 FF 61 00 41 68
   878.000000 1  100             Rx   d 8 55 00 E2 FF 61 00 41 68
   879.000000 1  100             Rx   d 8 55 00 E2 FF 61 00 41 68
   880.000000 1  100             Rx   d 8 55 00 E2 FF 61 00 41 68
   880.000000 1  101             Rx   d 8 BA 10 54 10 64 00 00 00
   881.000000 1  100             Rx   d 8 55 00 E2 FF 61 00 41 68
   882.000000 1  100             Rx   d 8 55 00 E2 FF 61 00 41 68
   883.000000 1  100             Rx   d 8 55 00 E2 FF 61 00 41 68
   884.000000 1  100             Rx   d 8 55 00 E2 FF 61 00 41 68
   885.000000 1  100             Rx   d 8 55 00 E2 FF 61 00 41 68
   885.000000 1  101             Rx   d 8 B7 10 59 10 64 00 00 00
   886.000000 1  100             Rx   d 8 55 00 E2 FF 61 00 41 68
   887.000000 1  100             Rx   d 8 55 00 E2 FF 61 00 41 68
   888.000000 1  100             Rx   d 8 55 00 E2 FF 61 00 41 68
   889.000000 1  100             Rx   d 8 55 00 E2 FF 61 00 41 68
   890.000000 1  100             Rx   d 8 55 00 E2 FF 61 00 41 68
   890.000000 1  101             Rx   d 8 B5 10 5D 10 64 00 00 00
   891.000000 1  100             Rx   d 8 55 00 E2 FF 61 00 41 68
   892.000000 1  100             Rx   d 8 55 00 E2 FF 61 00 41 68
   893.000000 1  100             Rx   d 8 55 00 E2 FF 61 00 41 68
   894.000000 1  100             Rx   d 8 55 00 E2 FF 61 00 41 68
   895.000000 1  100             Rx   d 8 55 00 E2 FF 61 00 41 68
   895.000000 1  101             Rx   d 8 B2 10 62 10 64 00 00 00
   896.000000 1  100             Rx   d 8 55 00 E2 FF 61 00 41 68
   897.000000 1  100             Rx   d 8 55 00 E2 FF 61 00 41 68
   898.000000 1  100             Rx   d 8 55 00 E2 FF 61 00 41 68
   899.000000 1  100             Rx   d 8 55 00 E2 FF 61 00 41 68
   900.000000 1  100             Rx   d 8 4C 00 96 00 5A 10 41 D1
   900.000000 1  101             Rx   d 8 E9 0E A9 0E 64 00 00 00
   901.000000 1  100             Rx   d 8 53 00 00 00 61 00 41 73
   902.000000 1  100             Rx   d 8 53 00 00 00 61 00 41 73
   903.000000 1  100             Rx   d 8 53 00 00 00 61 00 41 73
   904.000000 1  100             Rx   d 8 53 00 00 00 61 00 41 73
   905.000000 1  100             Rx   d 8 53 00 00 00 61 00 41 73
   905.000000 1  101             Rx   d 8 5F 10 21 10 64 00 00 00
   906.000000 1  100             Rx   d 8 53 00 00 00 61 00 41 73
   907.000000 1  100             Rx   d 8 53 00 00 00 61 00 41 73
   908.000000 1  100             Rx   d 8 53 00 00 00 61 00 41 73
   909.000000 1  100             Rx   d 8 53 00 00 00 61 00 41 73
   910.000000 1  100             Rx   d 8 53 00 00 00 61 00 41 73
   910.000000 1  101             Rx   d 8 5B 10 25 10 64 00 00 00
   911.000000 1  100             Rx   d 8 53 00 00 00 61 00 41 73
   912.000000 1  100             Rx   d 8 53 00 00 00 61 00 41 73
   913.000000 1  100             Rx   d 8 53 00 00 00 61 00 41 73
   914.000000 1  100             Rx   d 8 53 00 00 00 61 00 41 73
   915.000000 1  100             Rx   d 8 53 00 00 00 61 00 41 73
   915.000000 1  101             Rx   d 8 57 10 29 10 64 00 00 00
   916.000000 1  100             Rx   d 8 53 00 00 00 61 00 41 73
   917.000000 1  100             Rx   d 8 53 00 00 00 61 00 41 73
   918.000000 1  100             Rx   d 8 53 00 00 00 61 00 41 73
   919.000000 1  100             Rx   d 8 53 00 00 00 61 00 41 73
   920.000000 1  100             Rx   d 8 53 00 00 00 61 00 41 73
   920.000000 1  101             Rx   d 8 53 10 2D 10 64 00 00 00
   921.000000 1  100             Rx   d 8 53 00 00 00 61 00 41 73
   922.000000 1  100             Rx   d 8 53 00 00 00 61 00 41 73
   923.000000 1  100             Rx   d 8 53 00 00 00 61 00 41 73
   924.000000 1  100             Rx   d 8 53 00 00 00 61 00 41 73
   925.000000 1  100             Rx   d 8 53 00 00 00 61 00 41 73
   925.000000 1  101             Rx   d 8 4E 10 31 10 64 00 00 00
   926.000000 1  100             Rx   d 8 53 00 00 00 61 00 41 73
   927.000000 1  100             Rx   d 8 53 00 00 00 61 00 41 73
   928.000000 1  100             Rx   d 8 53 00 00 00 61 00 41 73
   929.000000 1  100             Rx   d 8 53 00 00 00 61 00 41 73
   930.000000 1  100             Rx   d 8 53 00 00 00 61 00 41 73
   930.000000 1  101             Rx   d 8 4A 10 36 10 64 00 00 00
   931.000000 1  100             Rx   d 8 53 00 00 00 61 00 41 73
   932.000000 1  100             Rx   d 8 53 00 00 00 61 00 41 73
   933.000000 1  100             Rx   d 8 53 00 00 00 61 00 41 73
   934.000000 1  100             Rx   d 8 53 00 00 00 61 00 41 73
   935.000000 1  100             Rx   d 8 53 00 00 00 61 00 41 73
   935.000000 1  101             Rx   d 8 46 10 3A 10 64 00 00 00
   936.000000 1  100             Rx   d 8 53 00 00 00 61 00 41 73
   937.000000 1  100             Rx   d 8 53 00 00 00 61 00 41 73
   938.000000 1  100             Rx   d 8 53 00 00 00 61 00 41 73
   939.000000 1  100             Rx   d 8 53 00 00 00 61 00 41 73
   940.000000 1  100             Rx   d 8 53 00 00 00 61 00 41 73
   940.000000 1  101             Rx   d 8 42 10 3E 10 64 00 00 00
   941.000000 1  100             Rx   d 8 53 00 00 00 61 00 41 73
   942.000000 1  100             Rx   d 8 53 00 00 00 61 00 41 73
   943.000000 1  100             Rx   d 8 53 00 00 00 61 00 41 73
   944.000000 1  100             Rx   d 8 53 00 00 00 61 00 41 73
   945.000000 1  100             Rx   d 8 53 00 00 00 61 00 41 73
   945.000000 1  101             Rx   d 8 3E 10 42 10 64 00 00 00
   946.000000 1  100             Rx   d 8 53 00 00 00 61 00 41 73
   947.000000 1  100             Rx   d 8 53 00 00 00 61 00 41 73
   948.000000 1  100             Rx   d 8 53 00 00 00 61 00 41 73
   949.000000 1  100             Rx   d 8 53 00 00 00 61 00 41 73
   950.000000 1  100             Rx   d 8 53 00 00 00 61 00 41 73
   950.000000 1  101             Rx   d 8 3A 10 46 10 64 00 00 00
   951.000000 1  100             Rx   d 8 53 00 00 00 61 00 41 73
   952.000000 1  100             Rx   d 8 53 00 00 00 61 00 41 73
   953.000000 1  100             Rx   d 8 53 00 00 00 61 00 41 73
   954.000000 1  100             Rx   d 8 53 00 00 00 61 00 41 73
   955.000000 1  100             Rx   d 8 53 00 00 00 61 00 41 73
   955.000000 1  101             Rx   d 8 35 10 4A 10 64 00 00 00
   956.000000 1  100             Rx   d 8 53 00 00 00 61 00 41 73
   957.000000 1  100             Rx   d 8 53 00 00 00 61 00 41 73
   958.000000 1  100             Rx   d 8 53 00 00 00 61 00 41 73
   959.000000 1  100             Rx   d 8 53 00 00 00 61 00 41 73
   960.000000 1  100             Rx   d 8 53 00 00 00 61 00 41 73
   960.000000 1  101             Rx   d 8 31 10 4E 10 64 00 00 00
   961.000000 1  100             Rx   d 8 53 00 00 00 61 00 41 73
   962.000000 1  100             Rx   d 8 53 00 00 00 61 00 41 73
   963.000000 1  100             Rx   d 8 53 00 00 00 61 00 41 73
   964.000000 1  100             Rx   d 8 53 00 00 00 61 00 41 73
   965.000000 1  100             Rx   d 8 53 00 00 00 61 00 41 73
   965.000000 1  101             Rx   d 8 2D 10 53 10 64 00 00 00
   966.000000 1  100             Rx   d 8 53 00 00 00 61 00 41 73
   967.000000 1  100             Rx   d 8 53 00 00 00 61 00 41 73
   968.000000 1  100             Rx   d 8 53 00 00 00 61 00 41 73
   969.000000 1  100             Rx   d 8 53 00 00 00 61 00 41 73
   970.000000 1  100             Rx   d 8 53 00 00 00 61 00 41 73
   970.000000 1  101             Rx   d 8 29 10 57 10 64 00 00 00
   971.000000 1  100             Rx   d 8 53 00 00 00 61 00 41 73
   972.000000 1  100             Rx   d 8 53 00 00 00 61 00 41 73
   973.000000 1  100             Rx   d 8 53 00 00 00 61 00 41 73
   974.000000 1  100             Rx   d 8 53 00 00 00 61 00 41 73
   975.000000 1  100             Rx   d 8 53 00 00 00 61 00 41 73
   975.000000 1  101             Rx   d 8 25 10 5B 10 64 00 00 00
   976.000000 1  100             Rx   d 8 53 00 00 00 61 00 41 73
   977.000000 1  100             Rx   d 8 53 00 00 00 61 00 41 73
   978.000000 1  100             Rx   d 8 53 00 00 00 61 00 41 73
   979.000000 1  100             Rx   d 8 53 00 00 00 61 00 41 73
   980.000000 1  100             Rx   d 8 53 00 00 00 61 00 41 73
   980.000000 1  101             Rx   d 8 21 10 5F 10 64 00 00 00
   981.000000 1  100             Rx   d 8 53 00 00 00 61 00 41 73
   982.000000 1  100             Rx   d 8 53 00 00 00 61 00 41 73
   983.000000 1  100             Rx   d 8 53 00 00 00 61 00 41 73
   984.000000 1  100             Rx   d 8 53 00 00 00 61 00 41 73
   985.000000 1  100             Rx   d 8 53 00 00 00 61 00 41 73
   985.000000 1  101             Rx   d 8 1D 10 63 10 64 00 00 00
   986.000000 1  100             Rx   d 8 53 00 00 00 61 00 41 73
   987.000000 1  100             Rx   d 8 53 00 00 00 61 00 41 73
   988.000000 1  100             Rx   d 8 53 00 00 00 61 00 41 73
   989.000000 1  100             Rx   d 8 53 00 00 00 61 00 41 73
   990.000000 1  100             Rx   d 8 53 00 00 00 61 00 41 73
   990.000000 1  101             Rx   d 8 19 10 67 10 64 00 00 00
   991.000000 1  100             Rx   d 8 53 00 00 00 61 00 41 73
   992.000000 1  100             Rx   d 8 53 00 00 00 61 00 41 73
   993.000000 1  100             Rx   d 8 53 00 00 00 61 00 41 73
   994.000000 1  100             Rx   d 8 53 00 00 00 61 00 41 73
   995.000000 1  100             Rx   d 8 53 00 00 00 61 00 41 73
   995.000000 1  101             Rx   d 8 15 10 6B 10 64 00 00 00
   996.000000 1  100             Rx   d 8 53 00 00 00 61 00 41 73
   997.000000 1  100             Rx   d 8 53 00 00 00 61 00 41 73
   998.000000 1  100             Rx   d 8 53 00 00 00 61 00 41 73
   999.000000 1  100             Rx   d 8 53 00 00 00 61 00 41 73
End Triggerblock
